  can0  06E   [7]  84 BF 7F AA 76 00 01
  can0  618   [8]  00 00 00 44 8C 00 07 CF
  can0  321   [8]  00 48 00 07 92 87 F7 F3
  can0  00A   [8]  37 07 00 00 00 00 00 00
  can0  185   [8]  5A 64 3F FD 7F AA 71 58
  can0  208   [8]  00 00 00 00 00 00 00 00
  can0  218   [8]  00 FF 80 00 00 00 09 77
  can0  258   [8]  00 00 00 00 00 00 00 00
  can0  285   [8]  01 3C 00 00 00 00 00 70
  can0  375   [8]  18 88 0C 64 41 40 A6 FF
  can0  385   [8]  00 00 00 00 00 00 00 2A
  can0  430   [8]  77 00 00 00 00 00 00 00
  can0  171   [8]  36 B0 00 00 00 00 00 00
  can0  1CA   [8]  00 00 00 00 00 00 00 00
  can0  202   [8]  00 07 78 00 00 00 00 01
  can0  205   [8]  00 80 00 00 00 80 00 00
  can0  255   [8]  00 00 00 00 00 00 00 00
  can0  265   [8]  5C 00 00 00 00 00 14 8F
  can0  280   [8]  00 00 00 00 00 00 00 00
  can0  485   [8]  54 43 11 28 C1 1A 70 85
  can0  390   [8]  00 00 00 00 00 00 00 00
  can0  617   [8]  00 00 00 00 00 00 07 07
  can0  630   [7]  D7 05 00 00 00 E0 06
  can0  600   [5]  8C 00 00 00 00
  can0  06E   [7]  41 B0 7F AA 76 00 01
  can0  382   [8]  53 04 FE 70 00 CF 00 D0
  can0  321   [8]  00 48 00 07 83 87 F7 F3
  can0  218   [8]  00 FF 80 00 00 00 0A 76
  can0  202   [8]  00 61 00 00 00 00 00 01
  can0  171   [8]  36 B0 00 00 00 00 00 00
  can0  1CA   [8]  00 00 00 00 00 00 00 00
  can0  205   [8]  00 80 00 00 00 80 00 00
  can0  255   [8]  00 00 00 00 00 00 00 00
  can0  265   [8]  6B 00 00 00 00 00 14 80
  can0  280   [8]  00 00 00 00 00 00 00 00
  can0  06E   [7]  07 B1 7F AA 76 00 01
  can0  321   [8]  00 48 00 07 F4 87 F7 F3
  can0  208   [8]  00 00 00 00 00 00 00 00
  can0  218   [8]  00 FF 80 00 00 00 0B 75
  can0  258   [8]  00 00 00 00 00 00 00 00
  can0  202   [8]  00 6B 08 00 00 00 00 01
  can0  171   [8]  36 B0 00 00 00 00 00 00
  can0  1CA   [8]  00 00 00 00 00 00 00 00
  can0  205   [8]  00 80 00 00 00 80 00 00
  can0  255   [8]  00 00 00 00 00 00 00 00
  can0  265   [8]  6A 00 00 00 00 00 14 81
  can0  275   [1]  01
  can0  280   [8]  00 00 00 00 00 00 00 00
  can0  400   [3]  03 09 30
  can0  411   [3]  F1 09 00
  can0  4F0   [1]  00
  can0  500   [7]  41 A0 00 2C 01 00 5A
  can0  505   [2]  01 05
  can0  510   [5]  5E 73 6C 09 48
  can0  620   [6]  B9 09 47 44 76 11
  can0  00A   [8]  6B 08 00 00 00 00 00 00
  can0  5F3   [1]  00
  can0  06E   [7]  CD B2 7F AA 76 00 01
  can0  321   [8]  00 48 00 07 E5 87 F7 F3
  can0  218   [8]  00 FF 80 00 00 00 0C 74
  can0  202   [8]  00 75 10 00 00 00 00 01
  can0  171   [8]  36 B0 00 00 00 00 00 00
  can0  1CA   [8]  00 00 00 00 00 00 00 00
  can0  205   [8]  00 80 00 00 00 80 00 00
  can0  255   [8]  00 00 00 00 00 00 00 00
  can0  265   [8]  69 00 00 00 00 00 14 82
  can0  280   [8]  00 00 00 00 00 00 00 00
  can0  06E   [7]  8B B3 7F AA 76 00 01
  can0  208   [8]  00 00 00 00 00 00 00 00
  can0  218   [8]  00 FF 80 00 00 00 0D 73
  can0  258   [8]  00 00 00 00 00 00 00 00
  can0  321   [8]  00 48 00 07 D6 87 F7 F3
  can0  00A   [8]  36 09 00 00 00 00 00 00
  can0  171   [8]  36 B0 00 00 00 00 00 00
  can0  1CA   [8]  00 00 00 00 00 00 00 00
  can0  202   [8]  00 7F 18 00 00 00 00 01
  can0  205   [8]  00 80 00 00 00 80 00 00
  can0  255   [8]  00 00 00 00 00 00 00 00
  can0  265   [8]  68 00 00 00 00 00 14 83
  can0  280   [8]  00 00 00 00 00 00 00 00
  can0  06E   [7]  FE B4 7F A9 76 00 01
  can0  218   [8]  00 FF 80 00 00 00 0E 72
  can0  321   [8]  00 48 00 07 C7 87 F7 F3
  can0  202   [8]  00 49 20 00 00 00 00 01
  can0  171   [8]  36 B0 00 00 00 00 00 00
  can0  1CA   [8]  00 00 00 00 00 00 00 00
  can0  205   [8]  00 80 00 00 00 80 00 00
  can0  255   [8]  00 00 00 00 00 00 00 00
  can0  265   [8]  67 00 00 00 00 00 14 84
  can0  280   [8]  00 00 00 00 00 00 00 00
  can0  06E   [7]  B8 B5 7F A9 76 00 01
  can0  00A   [8]  D1 0A 00 00 00 00 00 00
  can0  208   [8]  00 00 00 00 00 00 00 00
  can0  218   [8]  00 FF 80 00 00 00 0F 71
  can0  258   [8]  00 00 00 00 00 00 00 00
  can0  321   [8]  00 48 00 07 38 87 F7 F3
  can0  202   [8]  00 43 28 00 00 00 00 01
  can0  171   [8]  36 B0 00 00 00 00 00 00
  can0  1CA   [8]  00 00 00 00 00 00 00 00
  can0  205   [8]  00 80 00 00 00 80 00 00
  can0  255   [8]  00 00 00 00 00 00 00 00
  can0  265   [8]  66 00 00 00 00 00 14 85
  can0  280   [8]  00 00 00 00 00 00 00 00
  can0  06E   [7]  72 B6 7F A9 76 00 01
  can0  218   [8]  00 FF 80 00 00 00 00 80
  can0  321   [8]  00 48 00 07 29 87 F7 F3
  can0  202   [8]  00 5D 30 00 00 00 00 01
  can0  171   [8]  36 B0 00 00 00 00 00 00
  can0  1CA   [8]  00 00 00 00 00 00 00 00
  can0  205   [8]  00 80 00 00 00 80 00 00
  can0  255   [8]  00 00 00 00 00 00 00 00
  can0  265   [8]  65 00 00 00 00 00 14 86
  can0  280   [8]  00 00 00 00 00 00 00 00
  can0  06E   [7]  34 B7 7F A9 76 00 01
  can0  208   [8]  00 00 00 00 00 00 00 00
  can0  218   [8]  00 FF 80 00 00 00 01 7F
  can0  258   [8]  00 00 00 00 00 00 00 00
  can0  321   [8]  00 48 00 07 1A 87 F7 F3
  can0  202   [8]  00 57 38 00 00 00 00 01
  can0  171   [8]  36 B0 00 00 00 00 00 00
  can0  1CA   [8]  00 00 00 00 00 00 00 00
  can0  205   [8]  00 80 00 00 00 80 00 00
  can0  255   [8]  00 00 00 00 00 00 00 00
  can0  265   [8]  64 00 00 00 00 00 14 87
  can0  280   [8]  00 00 00 00 00 00 00 00
  can0  00A   [8]  8C 0B 00 00 00 00 00 00
  can0  06E   [7]  F1 B8 7F A9 76 00 01
  can0  218   [8]  00 FF 80 00 00 00 02 7E
  can0  321   [8]  00 48 00 07 0B 87 F7 F3
  can0  202   [8]  00 31 40 00 00 00 00 01
  can0  171   [8]  36 B0 00 00 00 00 00 00
  can0  1CA   [8]  00 00 00 00 00 00 00 00
  can0  205   [8]  00 80 00 00 00 80 00 00
  can0  255   [8]  00 00 00 00 00 00 00 00
  can0  265   [8]  63 00 00 00 00 00 14 88
  can0  280   [8]  00 00 00 00 00 00 00 00
  can0  06E   [7]  B7 B9 7F A9 76 00 01
  can0  618   [8]  00 00 00 44 8C 00 08 C0
  can0  430   [8]  77 00 00 00 00 00 00 00
  can0  00A   [8]  02 0C 00 00 00 00 00 00
  can0  037   [6]  50 C3 00 00 00 30
  can0  185   [8]  5A 64 3F FD 7F AA 81 A8
  can0  208   [8]  00 00 00 00 00 00 00 00
  can0  218   [8]  00 FF 80 00 00 00 03 7D
  can0  258   [8]  00 00 00 00 00 00 00 00
  can0  285   [8]  01 3C 00 00 00 00 00 80
  can0  321   [8]  00 48 00 07 7C 87 F7 F3
  can0  375   [8]  45 89 0C 64 41 40 A6 FF
  can0  202   [8]  00 3B 48 00 00 00 00 01
  can0  171   [8]  36 AF 00 00 00 00 00 00
  can0  1CA   [8]  00 00 00 00 00 00 00 00
  can0  205   [8]  00 80 00 00 00 80 00 00
  can0  255   [8]  00 00 00 00 00 00 00 00
  can0  265   [8]  62 00 00 00 00 00 14 89
  can0  280   [8]  00 00 00 00 00 00 00 00
  can0  385   [8]  00 00 00 00 00 00 00 2A
  can0  390   [8]  00 00 00 00 00 00 00 00
  can0  485   [8]  54 43 11 28 C1 1A 80 75
  can0  617   [8]  00 00 00 00 00 00 08 08
  can0  630   [7]  1D 06 00 00 00 E0 06
  can0  600   [5]  8C 00 00 00 00
  can0  06E   [7]  7D BA 7F A9 76 00 01
  can0  382   [8]  53 05 00 D6 FE 70 00 00
  can0  218   [8]  00 FF 80 00 00 00 04 7C
  can0  321   [8]  00 48 00 07 6D 87 F7 F3
  can0  202   [8]  00 25 50 00 00 00 00 01
  can0  171   [8]  36 B0 00 00 00 00 00 00
  can0  1CA   [8]  00 00 00 00 00 00 00 00
  can0  205   [8]  00 80 00 00 00 80 00 00
  can0  255   [8]  00 00 00 00 00 00 00 00
  can0  265   [8]  61 00 00 00 00 00 14 8A
  can0  280   [8]  00 00 00 00 00 00 00 00
  can0  06E   [7]  3B BB 7F A9 76 00 01
  can0  208   [8]  00 00 00 00 00 00 00 00
  can0  218   [8]  00 FF 80 00 00 00 05 7B
  can0  258   [8]  00 00 00 00 00 00 00 00
  can0  321   [8]  00 48 00 07 5E 87 F7 F3
  can0  202   [8]  00 2F 58 00 00 00 00 01
  can0  171   [8]  36 B0 00 00 00 00 00 00
  can0  1CA   [8]  00 00 00 00 00 00 00 00
  can0  205   [8]  00 80 00 00 00 80 00 00
  can0  255   [8]  00 00 00 00 00 00 00 00
  can0  265   [8]  60 00 00 00 00 00 14 8B
  can0  275   [1]  01
  can0  280   [8]  00 00 00 00 00 00 00 00
  can0  400   [3]  D7 0A 30
  can0  411   [3]  25 0A 00
  can0  500   [7]  41 A0 00 2C 01 00 5A
  can0  510   [5]  5E 73 6C 0A 4B
  can0  620   [6]  07 0A 47 44 76 11
  can0  00A   [8]  5F 0D 00 00 00 00 00 00
  can0  06E   [7]  F4 BC 7F A9 76 00 01
  can0  218   [8]  00 FF 80 00 00 00 06 7A
  can0  321   [8]  00 48 00 07 4F 87 F7 F3
  can0  202   [8]  00 19 60 00 00 00 00 01
  can0  171   [8]  36 B0 00 00 00 00 00 00
  can0  1CA   [8]  00 00 00 00 00 00 00 00
  can0  205   [8]  00 80 00 00 00 80 00 00
  can0  255   [8]  00 00 00 00 00 00 00 00
  can0  265   [8]  5F 00 00 00 00 00 14 8C
  can0  280   [8]  00 00 00 00 00 00 00 00
  can0  06E   [7]  B2 BD 7F A9 76 00 01
  can0  208   [8]  00 00 00 00 00 00 00 00
  can0  218   [8]  00 FF 80 00 00 00 07 79
  can0  258   [8]  00 00 00 00 00 00 00 00
  can0  321   [8]  00 48 00 07 B0 87 F7 F3
  can0  00A   [8]  B8 0E 00 00 00 00 00 00
  can0  171   [8]  36 B0 00 00 00 00 00 00
  can0  1CA   [8]  00 00 00 00 00 00 00 00
  can0  202   [8]  00 13 68 00 00 00 00 01
  can0  205   [8]  00 80 00 00 00 80 00 00
  can0  255   [8]  00 00 00 00 00 00 00 00
  can0  265   [8]  5E 00 00 00 00 00 14 8D
  can0  280   [8]  00 00 00 00 00 00 00 00
  can0  06E   [7]  C2 BE 7F AA 76 00 01
  can0  218   [8]  00 FF 80 00 00 00 08 78
  can0  321   [8]  00 48 00 07 A1 87 F7 F3
  can0  202   [8]  00 0D 70 00 00 00 00 01
  can0  171   [8]  36 B0 00 00 00 00 00 00
  can0  1CA   [8]  00 00 00 00 00 00 00 00
  can0  205   [8]  00 80 00 00 00 80 00 00
  can0  255   [8]  00 00 00 00 00 00 00 00
  can0  265   [8]  5D 00 00 00 00 00 14 8E
  can0  280   [8]  00 00 00 00 00 00 00 00
  can0  06E   [7]  84 BF 7F AA 76 00 01
  can0  00A   [8]  E5 0F 00 00 00 00 00 00
  can0  208   [8]  00 00 00 00 00 00 00 00
  can0  218   [8]  00 FF 80 00 00 00 09 77
  can0  258   [8]  00 00 00 00 00 00 00 00
  can0  321   [8]  00 48 00 07 92 87 F7 F3
  can0  202   [8]  00 07 78 00 00 00 00 01
  can0  171   [8]  36 B0 00 00 00 00 00 00
  can0  1CA   [8]  00 00 00 00 00 00 00 00
  can0  205   [8]  00 80 00 00 00 80 00 00
  can0  255   [8]  00 00 00 00 00 00 00 00
  can0  265   [8]  5C 00 00 00 00 00 14 8F
  can0  280   [8]  00 00 00 00 00 00 00 00
  can0  06E   [7]  41 B0 7F AA 76 00 01
  can0  218   [8]  00 FF 80 00 00 00 0A 76
  can0  321   [8]  00 48 00 07 83 87 F7 F3
  can0  202   [8]  00 61 00 00 00 00 00 01
  can0  171   [8]  36 B0 00 00 00 00 00 00
  can0  1CA   [8]  00 00 00 00 00 00 00 00
  can0  205   [8]  00 80 00 00 00 80 00 00
  can0  255   [8]  00 00 00 00 00 00 00 00
  can0  265   [8]  6B 00 00 00 00 00 14 80
  can0  280   [8]  00 00 00 00 00 00 00 00
  can0  06E   [7]  07 B1 7F AA 76 00 01
  can0  208   [8]  00 00 00 00 00 00 00 00
  can0  218   [8]  00 FF 80 00 00 00 0B 75
  can0  258   [8]  00 00 00 00 00 00 00 00
  can0  321   [8]  00 48 00 07 F4 87 F7 F3
  can0  202   [8]  00 6B 08 00 00 00 00 01
  can0  171   [8]  36 B0 00 00 00 00 00 00
  can0  1CA   [8]  00 00 00 00 00 00 00 00
  can0  205   [8]  00 80 00 00 00 80 00 00
  can0  255   [8]  00 00 00 00 00 00 00 00
  can0  265   [8]  6A 00 00 00 00 00 14 81
  can0  280   [8]  00 00 00 00 00 00 00 00
  can0  00A   [8]  B9 00 00 00 00 00 00 00
  can0  06E   [7]  CD B2 7F AA 76 00 01
  can0  218   [8]  00 FF 80 00 00 00 0C 74
  can0  321   [8]  00 48 00 07 E5 87 F7 F3
  can0  202   [8]  00 75 10 00 00 00 00 01
  can0  171   [8]  36 B0 00 00 00 00 00 00
  can0  1CA   [8]  00 00 00 00 00 00 00 00
  can0  205   [8]  00 80 00 00 00 80 00 00
  can0  255   [8]  00 00 00 00 00 00 00 00
  can0  265   [8]  69 00 00 00 00 00 14 82
  can0  280   [8]  00 00 00 00 00 00 00 00
  can0  06E   [7]  8B B3 7F AA 76 00 01
  can0  618   [8]  00 00 00 44 8C 00 09 C1
  can0  430   [8]  77 00 00 00 00 00 00 00
  can0  00A   [8]  E4 01 00 00 00 00 00 00
  can0  185   [8]  5A 64 3F FD 7F AA 91 B8
  can0  208   [8]  00 00 00 00 00 00 00 00
  can0  218   [8]  00 FF 80 00 00 00 0D 73
  can0  258   [8]  00 00 00 00 00 00 00 00
  can0  285   [8]  01 3C 00 00 00 00 00 90
  can0  321   [8]  00 48 00 07 D6 87 F7 F3
  can0  375   [8]  A2 8A 0C 64 41 40 A6 FF
  can0  385   [8]  00 00 00 00 00 00 00 2A
  can0  171   [8]  36 B0 00 00 00 00 00 00
  can0  1CA   [8]  00 00 00 00 00 00 00 00
  can0  202   [8]  00 7F 18 00 00 00 00 01
  can0  205   [8]  00 80 00 00 00 80 00 00
  can0  255   [8]  00 00 00 00 00 00 00 00
  can0  265   [8]  68 00 00 00 00 00 14 83
  can0  280   [8]  00 00 00 00 00 00 00 00
  can0  485   [8]  54 43 11 29 C1 1A 90 64
  can0  390   [8]  00 00 00 00 00 00 00 00
  can0  617   [8]  00 00 00 00 00 00 09 09
  can0  630   [7]  5B 07 00 00 00 E0 06
  can0  600   [5]  8C 00 00 00 00
  can0  06E   [7]  44 B4 7F AA 76 00 01
  can0  382   [8]  53 06 00 00 00 00 00 00
  can0  218   [8]  00 FF 80 00 00 00 0E 72
  can0  321   [8]  00 48 00 07 C7 87 F7 F3
  can0  202   [8]  00 49 20 00 00 00 00 01
  can0  171   [8]  36 B0 00 00 00 00 00 00
  can0  1CA   [8]  00 00 00 00 00 00 00 00
  can0  205   [8]  00 80 00 00 00 80 00 00
  can0  255   [8]  00 00 00 00 00 00 00 00
  can0  265   [8]  67 00 00 00 00 00 14 84
  can0  280   [8]  00 00 00 00 00 00 00 00
  can0  06E   [7]  02 B5 7F AA 76 00 01
  can0  208   [8]  00 00 00 00 00 00 00 00
  can0  218   [8]  00 FF 80 00 00 00 0F 71
  can0  258   [8]  00 00 00 00 00 00 00 00
  can0  321   [8]  00 48 00 07 38 87 F7 F3
  can0  202   [8]  00 43 28 00 00 00 00 01
  can0  171   [8]  36 B0 00 00 00 00 00 00
  can0  1CA   [8]  00 00 00 00 00 00 00 00
  can0  205   [8]  00 80 00 00 00 80 00 00
  can0  255   [8]  00 00 00 00 00 00 00 00
  can0  265   [8]  66 00 00 00 00 00 14 85
  can0  275   [1]  01
  can0  280   [8]  00 00 00 00 00 00 00 00
  can0  400   [3]  9B 0B 30
  can0  411   [3]  69 0B 00
  can0  500   [7]  41 A0 00 2C 01 00 5A
  can0  510   [5]  5E 73 6C 0B 4A
  can0  620   [6]  6D 0B 47 44 76 11
  can0  00A   [8]  03 02 00 00 00 00 00 00
  can0  06E   [7]  C8 B6 7F AA 76 00 01
  can0  218   [8]  00 FF 80 00 00 00 00 80
  can0  321   [8]  00 48 00 07 29 87 F7 F3
  can0  202   [8]  00 5D 30 00 00 00 00 01
  can0  171   [8]  36 B0 00 00 00 00 00 00
  can0  1CA   [8]  00 00 00 00 00 00 00 00
  can0  205   [8]  00 80 00 00 00 80 00 00
  can0  255   [8]  00 00 00 00 00 00 00 00
  can0  265   [8]  65 00 00 00 00 00 14 86
  can0  280   [8]  00 00 00 00 00 00 00 00
  can0  06E   [7]  8E B7 7F AA 76 00 01
  can0  208   [8]  00 00 00 00 00 00 00 00
  can0  218   [8]  00 FF 80 00 00 00 01 7F
  can0  258   [8]  00 00 00 00 00 00 00 00
  can0  321   [8]  00 48 00 07 1A 87 F7 F3
  can0  00A   [8]  5E 03 00 00 00 00 00 00
  can0  171   [8]  36 B0 00 00 00 00 00 00
  can0  1CA   [8]  00 00 00 00 00 00 00 00
  can0  202   [8]  00 57 38 00 00 00 00 01
  can0  205   [8]  00 80 00 00 00 80 00 00
  can0  255   [8]  00 00 00 00 00 00 00 00
  can0  265   [8]  64 00 00 00 00 00 14 87
  can0  280   [8]  00 00 00 00 00 00 00 00
  can0  06E   [7]  4B B8 7F AA 76 00 01
  can0  218   [8]  00 FF 80 00 00 00 02 7E
  can0  321   [8]  00 48 00 07 0B 87 F7 F3
  can0  202   [8]  00 31 40 00 00 00 00 01
  can0  171   [8]  36 B0 00 00 00 00 00 00
  can0  1CA   [8]  00 00 00 00 00 00 00 00
  can0  205   [8]  00 80 00 00 00 80 00 00
  can0  255   [8]  00 00 00 00 00 00 00 00
  can0  265   [8]  63 00 00 00 00 00 14 88
  can0  280   [8]  00 00 00 00 00 00 00 00
  can0  06E   [7]  0D B9 7F AA 76 00 01
  can0  00A   [8]  D0 04 00 00 00 00 00 00
  can0  208   [8]  00 00 00 00 00 00 00 00
  can0  218   [8]  00 FF 80 00 00 00 03 7D
  can0  258   [8]  00 00 00 00 00 00 00 00
  can0  321   [8]  00 48 00 07 7C 87 F7 F3
  can0  202   [8]  00 3B 48 00 00 00 00 01
  can0  171   [8]  36 B0 00 00 00 00 00 00
  can0  1CA   [8]  00 00 00 00 00 00 00 00
  can0  205   [8]  00 80 00 00 00 80 00 00
  can0  255   [8]  00 00 00 00 00 00 00 00
  can0  265   [8]  62 00 00 00 00 00 14 89
  can0  280   [8]  00 00 00 00 00 00 00 00
  can0  06E   [7]  C7 BA 7F AA 76 00 01
  can0  218   [8]  00 FF 80 00 00 00 04 7C
  can0  321   [8]  00 48 00 07 6D 87 F7 F3
  can0  202   [8]  00 25 50 00 00 00 00 01
  can0  171   [8]  36 B0 00 00 00 00 00 00
  can0  1CA   [8]  00 00 00 00 00 00 00 00
  can0  205   [8]  00 80 00 00 00 80 00 00
  can0  255   [8]  00 00 00 00 00 00 00 00
  can0  265   [8]  61 00 00 00 00 00 14 8A
  can0  280   [8]  00 00 00 00 00 00 00 00
  can0  06E   [7]  81 BB 7F AA 76 00 01
  can0  208   [8]  00 00 00 00 00 00 00 00
  can0  218   [8]  00 FF 80 00 00 00 05 7B
  can0  258   [8]  00 00 00 00 00 00 00 00
  can0  321   [8]  00 48 00 07 5E 87 F7 F3
  can0  202   [8]  00 2F 58 00 00 00 00 01
  can0  171   [8]  36 B0 00 00 00 00 00 00
  can0  1CA   [8]  00 00 00 00 00 00 00 00
  can0  205   [8]  00 80 00 00 00 80 00 00
  can0  255   [8]  00 00 00 00 00 00 00 00
  can0  265   [8]  60 00 00 00 00 00 14 8B
  can0  280   [8]  00 00 00 00 00 00 00 00
  can0  00A   [8]  8D 05 00 00 00 00 00 00
  can0  06E   [7]  4E BC 7F AA 76 00 01
  can0  218   [8]  00 FF 80 00 00 00 06 7A
  can0  321   [8]  00 48 00 07 4F 87 F7 F3
  can0  202   [8]  00 19 60 00 00 00 00 01
  can0  171   [8]  36 B0 00 00 00 00 00 00
  can0  1CA   [8]  00 00 00 00 00 00 00 00
  can0  205   [8]  00 80 00 00 00 80 00 00
  can0  255   [8]  00 00 00 00 00 00 00 00
  can0  265   [8]  5F 00 00 00 00 00 14 8C
  can0  280   [8]  00 00 00 00 00 00 00 00
  can0  06E   [7]  08 BD 7F AA 76 00 01
  can0  618   [8]  00 00 00 44 8C 00 0A C2
  can0  617   [8]  00 00 00 00 00 00 0A 0A
  can0  00A   [8]  6A 06 00 00 00 00 00 00
  can0  185   [8]  5A 64 3F FD 7F AA A1 88
  can0  208   [8]  00 00 00 00 00 00 00 00
  can0  218   [8]  00 FF 80 00 00 00 07 79
  can0  258   [8]  00 00 00 00 00 00 00 00
  can0  285   [8]  01 3C 00 00 00 00 00 A0
  can0  321   [8]  00 48 00 07 B0 87 F7 F3
  can0  375   [8]  FF 8B 0C 64 41 40 A6 FF
  can0  385   [8]  00 00 00 00 00 00 00 2A
  can0  171   [8]  36 B0 00 00 00 00 00 00
  can0  1CA   [8]  00 00 00 00 00 00 00 00
  can0  202   [8]  00 13 68 00 00 00 00 01
  can0  205   [8]  00 80 00 00 00 80 00 00
  can0  255   [8]  00 00 00 00 00 00 00 00
  can0  265   [8]  5E 00 00 00 00 00 14 8D
  can0  280   [8]  00 00 00 00 00 00 00 00
  can0  430   [8]  77 00 00 00 00 00 00 00
  can0  390   [8]  00 00 00 00 00 00 00 00
  can0  485   [8]  54 43 11 28 C1 1A A0 55
  can0  630   [7]  9E 08 00 00 00 E0 06
  can0  600   [5]  8C 00 00 00 00
  can0  06E   [7]  C2 BE 7F AA 76 00 01
  can0  382   [8]  53 07 01 10 05 10 05 00
  can0  218   [8]  00 FF 80 00 00 00 08 78
  can0  321   [8]  00 48 00 07 A1 87 F7 F3
  can0  202   [8]  00 0D 70 00 00 00 00 01
  can0  171   [8]  36 B0 00 00 00 00 00 00
  can0  1CA   [8]  00 00 00 00 00 00 00 00
  can0  205   [8]  00 80 00 00 00 80 00 00
  can0  255   [8]  00 00 00 00 00 00 00 00
  can0  265   [8]  5D 00 00 00 00 00 14 8E
  can0  280   [8]  00 00 00 00 00 00 00 00
  can0  06E   [7]  84 BF 7F AA 76 00 01
  can0  208   [8]  00 00 00 00 00 00 00 00
  can0  218   [8]  00 FF 80 00 00 00 09 77
  can0  258   [8]  00 00 00 00 00 00 00 00
  can0  321   [8]  00 48 00 07 92 87 F7 F3
  can0  202   [8]  00 07 78 00 00 00 00 01
  can0  171   [8]  36 B0 00 00 00 00 00 00
  can0  1CA   [8]  00 00 00 00 00 00 00 00
  can0  205   [8]  00 80 00 00 00 80 00 00
  can0  255   [8]  00 00 00 00 00 00 00 00
  can0  265   [8]  5C 00 00 00 00 00 14 8F
  can0  275   [1]  01
  can0  280   [8]  00 00 00 00 00 00 00 00
  can0  400   [3]  62 0C 30
  can0  411   [3]  90 0C 00
  can0  500   [7]  41 A0 00 2C 01 00 5A
  can0  510   [5]  5E 73 6C 0C 4D
  can0  620   [6]  66 0C 47 44 76 11
  can0  00A   [8]  37 07 00 00 00 00 00 00
  can0  06E   [7]  41 B0 7F AA 76 00 01
  can0  218   [8]  00 FF 80 00 00 00 0A 76
  can0  321   [8]  00 48 00 07 83 87 F7 F3
  can0  202   [8]  00 61 00 00 00 00 00 01
  can0  171   [8]  36 B0 00 00 00 00 00 00
  can0  1CA   [8]  00 00 00 00 00 00 00 00
  can0  205   [8]  00 80 00 00 00 80 00 00
  can0  255   [8]  00 00 00 00 00 00 00 00
  can0  265   [8]  6B 00 00 00 00 00 14 80
  can0  280   [8]  00 00 00 00 00 00 00 00
  can0  06E   [7]  07 B1 7F AA 76 00 01
  can0  208   [8]  00 00 00 00 00 00 00 00
  can0  218   [8]  00 FF 80 00 00 00 0B 75
  can0  258   [8]  00 00 00 00 00 00 00 00
  can0  321   [8]  00 48 00 07 F4 87 F7 F3
  can0  00A   [8]  6B 08 00 00 00 00 00 00
  can0  171   [8]  36 B0 00 00 00 00 00 00
  can0  1CA   [8]  00 00 00 00 00 00 00 00
  can0  202   [8]  00 6B 08 00 00 00 00 01
  can0  205   [8]  00 80 00 00 00 80 00 00
  can0  255   [8]  00 00 00 00 00 00 00 00
  can0  265   [8]  6A 00 00 00 00 00 14 81
  can0  280   [8]  00 00 00 00 00 00 00 00
  can0  06E   [7]  CD B2 7F AA 76 00 01
  can0  218   [8]  00 FF 80 00 00 00 0C 74
  can0  321   [8]  00 48 00 07 E5 87 F7 F3
  can0  202   [8]  00 75 10 00 00 00 00 01
  can0  171   [8]  36 B0 00 00 00 00 00 00
  can0  1CA   [8]  00 00 00 00 00 00 00 00
  can0  205   [8]  00 80 00 00 00 80 00 00
  can0  255   [8]  00 00 00 00 00 00 00 00
  can0  265   [8]  69 00 00 00 00 00 14 82
  can0  280   [8]  00 00 00 00 00 00 00 00
  can0  06E   [7]  8B B3 7F AA 76 00 01
  can0  00A   [8]  36 09 00 00 00 00 00 00
  can0  208   [8]  00 00 00 00 00 00 00 00
  can0  218   [8]  00 FF 80 00 00 00 0D 73
  can0  258   [8]  00 00 00 00 00 00 00 00
  can0  321   [8]  00 48 00 07 D6 87 F7 F3
  can0  202   [8]  00 7F 18 00 00 00 00 01
  can0  171   [8]  36 AF 00 00 00 00 00 00
  can0  1CA   [8]  00 00 00 00 00 00 00 00
  can0  205   [8]  00 80 00 00 00 80 00 00
  can0  255   [8]  00 00 00 00 00 00 00 00
  can0  265   [8]  68 00 00 00 00 00 14 83
  can0  280   [8]  00 00 00 00 00 00 00 00
  can0  06E   [7]  44 B4 7F AA 76 00 01
  can0  218   [8]  00 FF 80 00 00 00 0E 72
  can0  321   [8]  00 48 00 07 C7 87 F7 F3
  can0  202   [8]  00 49 20 00 00 00 00 01
  can0  171   [8]  36 B0 00 00 00 00 00 00
  can0  1CA   [8]  00 00 00 00 00 00 00 00
  can0  205   [8]  00 80 00 00 00 80 00 00
  can0  255   [8]  00 00 00 00 00 00 00 00
  can0  265   [8]  67 00 00 00 00 00 14 84
  can0  280   [8]  00 00 00 00 00 00 00 00
  can0  06E   [7]  02 B5 7F AA 76 00 01
  can0  208   [8]  00 00 00 00 00 00 00 00
  can0  218   [8]  00 FF 80 00 00 00 0F 71
  can0  258   [8]  00 00 00 00 00 00 00 00
  can0  321   [8]  00 48 00 07 38 87 F7 F3
  can0  202   [8]  00 43 28 00 00 00 00 01
  can0  171   [8]  36 B0 00 00 00 00 00 00
  can0  1CA   [8]  00 00 00 00 00 00 00 00
  can0  205   [8]  00 80 00 00 00 80 00 00
  can0  255   [8]  00 00 00 00 00 00 00 00
  can0  265   [8]  66 00 00 00 00 00 14 85
  can0  280   [8]  00 00 00 00 00 00 00 00
  can0  00A   [8]  D1 0A 00 00 00 00 00 00
  can0  06E   [7]  C8 B6 7F AA 76 00 01
  can0  218   [8]  00 FF 80 00 00 00 00 80
  can0  321   [8]  00 48 00 07 29 87 F7 F3
  can0  202   [8]  00 5D 30 00 00 00 00 01
  can0  171   [8]  36 B0 00 00 00 00 00 00
  can0  1CA   [8]  00 00 00 00 00 00 00 00
  can0  205   [8]  00 80 00 00 00 80 00 00
  can0  255   [8]  00 00 00 00 00 00 00 00
  can0  265   [8]  65 00 00 00 00 00 14 86
  can0  280   [8]  00 00 00 00 00 00 00 00
  can0  06E   [7]  8E B7 7F AA 76 00 01
  can0  618   [8]  00 00 00 44 8C 00 0B C3
  can0  617   [8]  00 00 00 00 00 00 0B 0B
  can0  00A   [8]  8C 0B 00 00 00 00 00 00
  can0  185   [8]  5A 64 3F FD 7F AA B1 98
  can0  208   [8]  00 00 00 00 00 00 00 00
  can0  218   [8]  00 FF 80 00 00 00 01 7F
  can0  258   [8]  00 00 00 00 00 00 00 00
  can0  285   [8]  01 3C 00 00 00 00 00 B0
  can0  321   [8]  00 48 00 07 1A 87 F7 F3
  can0  375   [8]  71 8C 0C 64 41 40 A6 FF
  can0  385   [8]  00 00 00 00 00 00 00 2A
  can0  171   [8]  36 B0 00 00 00 00 00 00
  can0  1CA   [8]  00 00 00 00 00 00 00 00
  can0  202   [8]  00 57 38 00 00 00 00 01
  can0  205   [8]  00 80 00 00 00 80 00 00
  can0  255   [8]  00 00 00 00 00 00 00 00
  can0  265   [8]  64 00 00 00 00 00 14 87
  can0  280   [8]  00 00 00 00 00 00 00 00
  can0  430   [8]  77 00 00 00 00 00 00 00
  can0  390   [8]  00 00 00 00 00 00 00 00
  can0  485   [8]  54 43 11 29 C1 1A B0 44
  can0  630   [7]  D8 09 00 00 00 E0 06
  can0  600   [5]  8C 00 00 00 00
  can0  06E   [7]  4B B8 7F AA 76 00 01
  can0  420   [8]  00 6E 00 00 00 00 00 00
  can0  382   [8]  53 08 10 05 10 05 00 00
  can0  218   [8]  00 FF 80 00 00 00 02 7E
  can0  600   [5]  8C 00 00 00 00
  can0  601   [8]  73 03 00 00 CF 0F 00 69
  can0  321   [8]  00 48 00 07 0B 87 F7 F3
  can0  621   [6]  6D 4B 86 62 00 1C
  can0  202   [8]  00 31 40 00 00 00 00 01
  can0  171   [8]  36 B0 00 00 00 00 00 00
  can0  1CA   [8]  00 00 00 00 00 00 00 00
  can0  205   [8]  00 80 00 00 00 80 00 00
  can0  255   [8]  00 00 00 00 00 00 00 00
  can0  265   [8]  63 00 00 00 00 00 14 88
  can0  280   [8]  00 00 00 00 00 00 00 00
  can0  06E   [7]  0D B9 7F AA 76 00 01
  can0  208   [8]  00 00 00 00 00 00 00 00
  can0  218   [8]  00 FF 80 00 00 00 03 7D
  can0  258   [8]  00 00 00 00 00 00 00 00
  can0  321   [8]  00 48 00 07 7C 87 F7 F3
  can0  202   [8]  00 3B 48 00 00 00 00 01
  can0  171   [8]  36 B0 00 00 00 00 00 00
  can0  1CA   [8]  00 00 00 00 00 00 00 00
  can0  205   [8]  00 80 00 00 00 80 00 00
  can0  255   [8]  00 00 00 00 00 00 00 00
  can0  265   [8]  62 00 00 00 00 00 14 89
  can0  275   [1]  01
  can0  280   [8]  00 00 00 00 00 00 00 00
  can0  400   [3]  2E 0D 30
  can0  411   [3]  DC 0D 00
  can0  500   [7]  41 A0 00 2C 01 00 5A
  can0  510   [5]  5E 73 6C 0D 4C
  can0  620   [6]  0C 0D 47 44 76 11
  can0  00A   [8]  02 0C 00 00 00 00 00 00
  can0  06E   [7]  C7 BA 7F AA 76 00 01
  can0  218   [8]  00 FF 80 00 00 00 04 7C
  can0  321   [8]  00 48 00 07 6D 87 F7 F3
  can0  202   [8]  00 25 50 00 00 00 00 01
  can0  171   [8]  36 B0 00 00 00 00 00 00
  can0  1CA   [8]  00 00 00 00 00 00 00 00
  can0  205   [8]  00 80 00 00 00 80 00 00
  can0  255   [8]  00 00 00 00 00 00 00 00
  can0  265   [8]  61 00 00 00 00 00 14 8A
  can0  280   [8]  00 00 00 00 00 00 00 00
  can0  06E   [7]  81 BB 7F AA 76 00 01
  can0  208   [8]  00 00 00 00 00 00 00 00
  can0  218   [8]  00 FF 80 00 00 00 05 7B
  can0  258   [8]  00 00 00 00 00 00 00 00
  can0  321   [8]  00 48 00 07 5E 87 F7 F3
  can0  00A   [8]  5F 0D 00 00 00 00 00 00
  can0  171   [8]  36 B0 00 00 00 00 00 00
  can0  1CA   [8]  00 00 00 00 00 00 00 00
  can0  202   [8]  00 2F 58 00 00 00 00 01
  can0  205   [8]  00 80 00 00 00 80 00 00
  can0  255   [8]  00 00 00 00 00 00 00 00
  can0  265   [8]  60 00 00 00 00 00 14 8B
  can0  280   [8]  00 00 00 00 00 00 00 00
  can0  06E   [7]  4E BC 7F AA 76 00 01
  can0  218   [8]  00 FF 80 00 00 00 06 7A
  can0  321   [8]  00 48 00 07 4F 87 F7 F3
  can0  202   [8]  00 19 60 00 00 00 00 01
  can0  171   [8]  36 B0 00 00 00 00 00 00
  can0  1CA   [8]  00 00 00 00 00 00 00 00
  can0  205   [8]  00 80 00 00 00 80 00 00
  can0  255   [8]  00 00 00 00 00 00 00 00
  can0  265   [8]  5F 00 00 00 00 00 14 8C
  can0  280   [8]  00 00 00 00 00 00 00 00
  can0  06E   [7]  08 BD 7F AA 76 00 01
  can0  00A   [8]  B8 0E 00 00 00 00 00 00
  can0  208   [8]  00 00 00 00 00 00 00 00
  can0  218   [8]  00 FF 80 00 00 00 07 79
  can0  258   [8]  00 00 00 00 00 00 00 00
  can0  321   [8]  00 48 00 07 B0 87 F7 F3
  can0  202   [8]  00 13 68 00 00 00 00 01
  can0  171   [8]  36 B0 00 00 00 00 00 00
  can0  1CA   [8]  00 00 00 00 00 00 00 00
  can0  205   [8]  00 80 00 00 00 80 00 00
  can0  255   [8]  00 00 00 00 00 00 00 00
  can0  265   [8]  5E 00 00 00 00 00 14 8D
  can0  280   [8]  00 00 00 00 00 00 00 00
  can0  06E   [7]  C2 BE 7F AA 76 00 01
  can0  218   [8]  00 FF 80 00 00 00 08 78
  can0  321   [8]  00 48 00 07 A1 87 F7 F3
  can0  202   [8]  00 0D 70 00 00 00 00 01
  can0  171   [8]  36 B0 00 00 00 00 00 00
  can0  1CA   [8]  00 00 00 00 00 00 00 00
  can0  205   [8]  00 80 00 00 00 80 00 00
  can0  255   [8]  00 00 00 00 00 00 00 00
  can0  265   [8]  5D 00 00 00 00 00 14 8E
  can0  280   [8]  00 00 00 00 00 00 00 00
  can0  06E   [7]  84 BF 7F AA 76 00 01
  can0  208   [8]  00 00 00 00 00 00 00 00
  can0  218   [8]  00 FF 80 00 00 00 09 77
  can0  258   [8]  00 00 00 00 00 00 00 00
  can0  321   [8]  00 48 00 07 92 87 F7 F3
  can0  202   [8]  00 07 78 00 00 00 00 01
  can0  171   [8]  36 B0 00 00 00 00 00 00
  can0  1CA   [8]  00 00 00 00 00 00 00 00
  can0  205   [8]  00 80 00 00 00 80 00 00
  can0  255   [8]  00 00 00 00 00 00 00 00
  can0  265   [8]  5C 00 00 00 00 00 14 8F
  can0  280   [8]  00 00 00 00 00 00 00 00
  can0  00A   [8]  E5 0F 00 00 00 00 00 00
  can0  06E   [7]  41 B0 7F AA 76 00 01
  can0  218   [8]  00 FF 80 00 00 00 0A 76
  can0  321   [8]  00 48 00 07 83 87 F7 F3
  can0  202   [8]  00 61 00 00 00 00 00 01
  can0  171   [8]  36 B0 00 00 00 00 00 00
  can0  1CA   [8]  00 00 00 00 00 00 00 00
  can0  205   [8]  00 80 00 00 00 80 00 00
  can0  255   [8]  00 00 00 00 00 00 00 00
  can0  265   [8]  6B 00 00 00 00 00 14 80
  can0  280   [8]  00 00 00 00 00 00 00 00
  can0  06E   [7]  07 B1 7F AA 76 00 01
  can0  618   [8]  00 00 00 44 8C 00 0C C4
  can0  617   [8]  00 00 00 00 00 00 0C 0C
  can0  00A   [8]  B9 00 00 00 00 00 00 00
  can0  185   [8]  5A 64 3F FD 7F AA C1 E8
  can0  208   [8]  00 00 00 00 00 00 00 00
  can0  218   [8]  00 FF 80 00 00 00 0B 75
  can0  258   [8]  00 00 00 00 00 00 00 00
  can0  285   [8]  01 3C 00 00 00 00 00 C0
  can0  321   [8]  00 48 00 07 F4 87 F7 F3
  can0  375   [8]  2C 8D 0C 64 41 40 A6 FF
  can0  385   [8]  00 00 00 00 00 00 00 2A
  can0  171   [8]  36 B0 00 00 00 00 00 00
  can0  1CA   [8]  00 00 00 00 00 00 00 00
  can0  202   [8]  00 6B 08 00 00 00 00 01
  can0  205   [8]  00 80 00 00 00 80 00 00
  can0  255   [8]  00 00 00 00 00 00 00 00
  can0  265   [8]  6A 00 00 00 00 00 14 81
  can0  280   [8]  00 00 00 00 00 00 00 00
  can0  430   [8]  77 00 00 00 00 00 00 00
  can0  390   [8]  00 00 00 00 00 00 00 00
  can0  485   [8]  54 43 11 29 C1 1A C0 34
  can0  630   [7]  12 0A 00 00 00 E0 06
  can0  600   [5]  8C 00 00 00 00
  can0  06E   [7]  CD B2 7F AA 76 00 01
  can0  382   [8]  53 09 10 05 10 06 10 06
  can0  218   [8]  00 FF 80 00 00 00 0C 74
  can0  321   [8]  00 48 00 07 E5 87 F7 F3
  can0  202   [8]  00 75 10 00 00 00 00 01
  can0  171   [8]  36 B0 00 00 00 00 00 00
  can0  1CA   [8]  00 00 00 00 00 00 00 00
  can0  205   [8]  00 80 00 00 00 80 00 00
  can0  255   [8]  00 00 00 00 00 00 00 00
  can0  265   [8]  69 00 00 00 00 00 14 82
  can0  280   [8]  00 00 00 00 00 00 00 00
  can0  06E   [7]  8B B3 7F AA 76 00 01
  can0  208   [8]  00 00 00 00 00 00 00 00
  can0  218   [8]  00 FF 80 00 00 00 0D 73
  can0  258   [8]  00 00 00 00 00 00 00 00
  can0  321   [8]  00 48 00 07 D6 87 F7 F3
  can0  202   [8]  00 7F 18 00 00 00 00 01
  can0  171   [8]  36 B0 00 00 00 00 00 00
  can0  1CA   [8]  00 00 00 00 00 00 00 00
  can0  205   [8]  00 80 00 00 00 80 00 00
  can0  255   [8]  00 00 00 00 00 00 00 00
  can0  265   [8]  68 00 00 00 00 00 14 83
  can0  275   [1]  01
  can0  280   [8]  00 00 00 00 00 00 00 00
  can0  400   [3]  FA 0E 30
  can0  411   [3]  08 0E 00
  can0  500   [7]  41 A0 00 2C 01 00 5A
  can0  510   [5]  5E 73 6C 0E 4F
  can0  620   [6]  B2 0E 47 44 76 11
  can0  00A   [8]  E4 01 00 00 00 00 00 00
  can0  06E   [7]  44 B4 7F AA 76 00 01
  can0  218   [8]  00 FF 80 00 00 00 0E 72
  can0  321   [8]  00 48 00 07 C7 87 F7 F3
  can0  202   [8]  00 49 20 00 00 00 00 01
  can0  171   [8]  36 B0 00 00 00 00 00 00
  can0  1CA   [8]  00 00 00 00 00 00 00 00
  can0  205   [8]  00 80 00 00 00 80 00 00
  can0  255   [8]  00 00 00 00 00 00 00 00
  can0  265   [8]  67 00 00 00 00 00 14 84
  can0  280   [8]  00 00 00 00 00 00 00 00
  can0  06E   [7]  02 B5 7F AA 76 00 01
  can0  208   [8]  00 00 00 00 00 00 00 00
  can0  218   [8]  00 FF 80 00 00 00 0F 71
  can0  258   [8]  00 00 00 00 00 00 00 00
  can0  321   [8]  00 48 00 07 38 87 F7 F3
  can0  00A   [8]  03 02 00 00 00 00 00 00
  can0  171   [8]  36 B0 00 00 00 00 00 00
  can0  1CA   [8]  00 00 00 00 00 00 00 00
  can0  202   [8]  00 43 28 00 00 00 00 01
  can0  205   [8]  00 80 00 00 00 80 00 00
  can0  255   [8]  00 00 00 00 00 00 00 00
  can0  265   [8]  66 00 00 00 00 00 14 85
  can0  280   [8]  00 00 00 00 00 00 00 00
  can0  06E   [7]  C8 B6 7F AA 76 00 01
  can0  218   [8]  00 FF 80 00 00 00 00 80
  can0  321   [8]  00 48 00 07 29 87 F7 F3
  can0  202   [8]  00 5D 30 00 00 00 00 01
  can0  171   [8]  36 B0 00 00 00 00 00 00
  can0  1CA   [8]  00 00 00 00 00 00 00 00
  can0  205   [8]  00 80 00 00 00 80 00 00
  can0  255   [8]  00 00 00 00 00 00 00 00
  can0  265   [8]  65 00 00 00 00 00 14 86
  can0  280   [8]  00 00 00 00 00 00 00 00
  can0  06E   [7]  8E B7 7F AA 76 00 01
  can0  00A   [8]  5E 03 00 00 00 00 00 00
  can0  208   [8]  00 00 00 00 00 00 00 00
  can0  218   [8]  00 FF 80 00 00 00 01 7F
  can0  258   [8]  00 00 00 00 00 00 00 00
  can0  321   [8]  00 48 00 07 1A 87 F7 F3
  can0  202   [8]  00 57 38 00 00 00 00 01
  can0  171   [8]  36 B0 00 00 00 00 00 00
  can0  1CA   [8]  00 00 00 00 00 00 00 00
  can0  205   [8]  00 80 00 00 00 80 00 00
  can0  255   [8]  00 00 00 00 00 00 00 00
  can0  265   [8]  64 00 00 00 00 00 14 87
  can0  280   [8]  00 00 00 00 00 00 00 00
  can0  06E   [7]  4B B8 7F AA 76 00 01
  can0  218   [8]  00 FF 80 00 00 00 02 7E
  can0  321   [8]  00 48 00 07 0B 87 F7 F3
  can0  202   [8]  00 31 40 00 00 00 00 01
  can0  171   [8]  36 B0 00 00 00 00 00 00
  can0  1CA   [8]  00 00 00 00 00 00 00 00
  can0  205   [8]  00 80 00 00 00 80 00 00
  can0  255   [8]  00 00 00 00 00 00 00 00
  can0  265   [8]  63 00 00 00 00 00 14 88
  can0  280   [8]  00 00 00 00 00 00 00 00
  can0  06E   [7]  0D B9 7F AA 76 00 01
  can0  208   [8]  00 00 00 00 00 00 00 00
  can0  218   [8]  00 FF 80 00 00 00 03 7D
  can0  258   [8]  00 00 00 00 00 00 00 00
  can0  321   [8]  00 48 00 07 7C 87 F7 F3
  can0  202   [8]  00 3B 48 00 00 00 00 01
  can0  171   [8]  36 B0 00 00 00 00 00 00
  can0  1CA   [8]  00 00 00 00 00 00 00 00
  can0  205   [8]  00 80 00 00 00 80 00 00
  can0  255   [8]  00 00 00 00 00 00 00 00
  can0  265   [8]  62 00 00 00 00 00 14 89
  can0  280   [8]  00 00 00 00 00 00 00 00
  can0  00A   [8]  D0 04 00 00 00 00 00 00
  can0  06E   [7]  C7 BA 7F AA 76 00 01
  can0  218   [8]  00 FF 80 00 00 00 04 7C
  can0  321   [8]  00 48 00 07 6D 87 F7 F3
  can0  202   [8]  00 25 50 00 00 00 00 01
  can0  171   [8]  36 B0 00 00 00 00 00 00
  can0  1CA   [8]  00 00 00 00 00 00 00 00
  can0  205   [8]  00 80 00 00 00 80 00 00
  can0  255   [8]  00 00 00 00 00 00 00 00
  can0  265   [8]  61 00 00 00 00 00 14 8A
  can0  280   [8]  00 00 00 00 00 00 00 00
  can0  06E   [7]  81 BB 7F AA 76 00 01
  can0  618   [8]  00 00 00 44 8C 00 0D C5
  can0  617   [8]  00 00 00 00 00 00 0D 0D
  can0  00A   [8]  8D 05 00 00 00 00 00 00
  can0  185   [8]  5A 64 3F FD 7F AA D1 F8
  can0  208   [8]  00 00 00 00 00 00 00 00
  can0  218   [8]  00 FF 80 00 00 00 05 7B
  can0  258   [8]  00 00 00 00 00 00 00 00
  can0  285   [8]  01 3C 00 00 00 00 00 D0
  can0  321   [8]  00 48 00 07 5E 87 F7 F3
  can0  375   [8]  CB 8E 0C 64 41 40 A6 FF
  can0  385   [8]  00 00 00 00 00 00 00 2A
  can0  171   [8]  36 B0 00 00 00 00 00 00
  can0  1CA   [8]  00 00 00 00 00 00 00 00
  can0  202   [8]  00 2F 58 00 00 00 00 01
  can0  205   [8]  00 80 00 00 00 80 00 00
  can0  255   [8]  00 00 00 00 00 00 00 00
  can0  265   [8]  60 00 00 00 00 00 14 8B
  can0  280   [8]  00 00 00 00 00 00 00 00
  can0  390   [8]  00 00 00 00 00 00 00 00
  can0  430   [8]  77 00 00 00 00 00 00 00
  can0  485   [8]  54 43 11 28 C1 1A D0 25
  can0  630   [7]  54 0B 00 00 00 E0 06
  can0  600   [5]  8C 00 00 00 00
  can0  06E   [7]  4E BC 7F AA 76 00 01
  can0  382   [8]  53 0A 10 04 10 05 10 04
  can0  218   [8]  00 FF 80 00 00 00 06 7A
  can0  321   [8]  00 48 00 07 4F 87 F7 F3
  can0  202   [8]  00 19 60 00 00 00 00 01
  can0  171   [8]  36 B0 00 00 00 00 00 00
  can0  1CA   [8]  00 00 00 00 00 00 00 00
  can0  205   [8]  00 80 00 00 00 80 00 00
  can0  255   [8]  00 00 00 00 00 00 00 00
  can0  265   [8]  5F 00 00 00 00 00 14 8C
  can0  280   [8]  00 00 00 00 00 00 00 00
  can0  06E   [7]  08 BD 7F AA 76 00 01
  can0  208   [8]  00 00 00 00 00 00 00 00
  can0  218   [8]  00 FF 80 00 00 00 07 79
  can0  258   [8]  00 00 00 00 00 00 00 00
  can0  321   [8]  00 48 00 07 B0 87 F7 F3
  can0  202   [8]  00 13 68 00 00 00 00 01
  can0  171   [8]  36 B0 00 00 00 00 00 00
  can0  1CA   [8]  00 00 00 00 00 00 00 00
  can0  205   [8]  00 80 00 00 00 80 00 00
  can0  255   [8]  00 00 00 00 00 00 00 00
  can0  265   [8]  5E 00 00 00 00 00 14 8D
  can0  275   [1]  01
  can0  280   [8]  00 00 00 00 00 00 00 00
  can0  400   [3]  B6 0F 30
  can0  411   [3]  44 0F 00
  can0  500   [7]  41 A0 00 2C 01 00 5A
  can0  510   [5]  5E 73 6C 0F 4E
  can0  620   [6]  D8 0F 47 44 76 11
  can0  00A   [8]  6A 06 00 00 00 00 00 00
  can0  06E   [7]  C2 BE 7F AA 76 00 01
  can0  218   [8]  00 FF 80 00 00 00 08 78
  can0  321   [8]  00 48 00 07 A1 87 F7 F3
  can0  202   [8]  00 0D 70 00 00 00 00 01
  can0  171   [8]  36 B0 00 00 00 00 00 00
  can0  1CA   [8]  00 00 00 00 00 00 00 00
  can0  205   [8]  00 80 00 00 00 80 00 00
  can0  255   [8]  00 00 00 00 00 00 00 00
  can0  265   [8]  5D 00 00 00 00 00 14 8E
  can0  280   [8]  00 00 00 00 00 00 00 00
  can0  06E   [7]  84 BF 7F AA 76 00 01
  can0  208   [8]  00 00 00 00 00 00 00 00
  can0  218   [8]  00 FF 80 00 00 00 09 77
  can0  258   [8]  00 00 00 00 00 00 00 00
  can0  321   [8]  00 48 00 07 92 87 F7 F3
  can0  00A   [8]  37 07 00 00 00 00 00 00
  can0  171   [8]  36 B0 00 00 00 00 00 00
  can0  1CA   [8]  00 00 00 00 00 00 00 00
  can0  202   [8]  00 07 78 00 00 00 00 01
  can0  205   [8]  00 80 00 00 00 80 00 00
  can0  255   [8]  00 00 00 00 00 00 00 00
  can0  265   [8]  5C 00 00 00 00 00 14 8F
  can0  280   [8]  00 00 00 00 00 00 00 00
  can0  06E   [7]  FB B0 7F A9 76 00 01
  can0  218   [8]  00 FF 80 00 00 00 0A 76
  can0  321   [8]  00 48 00 07 83 87 F7 F3
  can0  202   [8]  00 61 00 00 00 00 00 01
  can0  171   [8]  36 B0 00 00 00 00 00 00
  can0  1CA   [8]  00 00 00 00 00 00 00 00
  can0  205   [8]  00 80 00 00 00 80 00 00
  can0  255   [8]  00 00 00 00 00 00 00 00
  can0  265   [8]  6B 00 00 00 00 00 14 80
  can0  280   [8]  00 00 00 00 00 00 00 00
  can0  06E   [7]  BD B1 7F A9 76 00 01
  can0  00A   [8]  6B 08 00 00 00 00 00 00
  can0  208   [8]  00 00 00 00 00 00 00 00
  can0  218   [8]  00 FF 80 00 00 00 0B 75
  can0  258   [8]  00 00 00 00 00 00 00 00
  can0  321   [8]  00 48 00 07 F4 87 F7 F3
  can0  202   [8]  00 6B 08 00 00 00 00 01
  can0  171   [8]  36 B0 00 00 00 00 00 00
  can0  1CA   [8]  00 00 00 00 00 00 00 00
  can0  205   [8]  00 80 00 00 00 80 00 00
  can0  255   [8]  00 00 00 00 00 00 00 00
  can0  265   [8]  6A 00 00 00 00 00 14 81
  can0  280   [8]  00 00 00 00 00 00 00 00
  can0  06E   [7]  77 B2 7F A9 76 00 01
  can0  218   [8]  00 FF 80 00 00 00 0C 74
  can0  321   [8]  00 48 00 07 E5 87 F7 F3
  can0  202   [8]  00 75 10 00 00 00 00 01
  can0  171   [8]  36 B0 00 00 00 00 00 00
  can0  1CA   [8]  00 00 00 00 00 00 00 00
  can0  205   [8]  00 80 00 00 00 80 00 00
  can0  255   [8]  00 00 00 00 00 00 00 00
  can0  265   [8]  69 00 00 00 00 00 14 82
  can0  280   [8]  00 00 00 00 00 00 00 00
  can0  06E   [7]  31 B3 7F A9 76 00 01
  can0  208   [8]  00 00 00 00 00 00 00 00
  can0  218   [8]  00 FF 80 00 00 00 0D 73
  can0  258   [8]  00 00 00 00 00 00 00 00
  can0  321   [8]  00 48 00 07 D6 87 F7 F3
  can0  202   [8]  00 7F 18 00 00 00 00 01
  can0  171   [8]  36 B0 00 00 00 00 00 00
  can0  1CA   [8]  00 00 00 00 00 00 00 00
  can0  205   [8]  00 80 00 00 00 80 00 00
  can0  255   [8]  00 00 00 00 00 00 00 00
  can0  265   [8]  68 00 00 00 00 00 14 83
  can0  280   [8]  00 00 00 00 00 00 00 00
  can0  00A   [8]  36 09 00 00 00 00 00 00
  can0  06E   [7]  FE B4 7F A9 76 00 01
  can0  218   [8]  00 FF 80 00 00 00 0E 72
  can0  321   [8]  00 48 00 07 C7 87 F7 F3
  can0  202   [8]  00 49 20 00 00 00 00 01
  can0  171   [8]  36 B0 00 00 00 00 00 00
  can0  1CA   [8]  00 00 00 00 00 00 00 00
  can0  205   [8]  00 80 00 00 00 80 00 00
  can0  255   [8]  00 00 00 00 00 00 00 00
  can0  265   [8]  67 00 00 00 00 00 14 84
  can0  280   [8]  00 00 00 00 00 00 00 00
  can0  06E   [7]  B8 B5 7F A9 76 00 01
  can0  618   [8]  00 00 00 44 8C 00 0E C6
  can0  430   [8]  77 00 00 00 00 00 00 00
  can0  00A   [8]  D1 0A 00 00 00 00 00 00
  can0  185   [8]  5A 64 3F FD 7F AA E1 C8
  can0  208   [8]  00 00 00 00 00 00 00 00
  can0  218   [8]  00 FF 80 00 00 00 0F 71
  can0  258   [8]  00 00 00 00 00 00 00 00
  can0  285   [8]  01 3C 00 00 00 00 00 E0
  can0  321   [8]  00 48 00 07 38 87 F7 F3
  can0  375   [8]  96 8F 0C 64 41 40 A6 FF
  can0  385   [8]  00 00 00 00 00 00 00 2A
  can0  171   [8]  36 B0 00 00 00 00 00 00
  can0  1CA   [8]  00 00 00 00 00 00 00 00
  can0  202   [8]  00 43 28 00 00 00 00 01
  can0  205   [8]  00 80 00 00 00 80 00 00
  can0  255   [8]  00 00 00 00 00 00 00 00
  can0  265   [8]  66 00 00 00 00 00 14 85
  can0  280   [8]  00 00 00 00 00 00 00 00
  can0  390   [8]  00 00 00 00 00 00 00 00
  can0  485   [8]  54 43 11 28 C1 1A E0 15
  can0  617   [8]  00 00 00 00 00 00 0E 0E
  can0  630   [7]  9B 0C 00 00 00 E0 06
  can0  600   [5]  8C 00 00 00 00
  can0  06E   [7]  72 B6 7F A9 76 00 01
  can0  382   [8]  53 0B 10 04 FE 70 00 CF
  can0  218   [8]  00 FF 80 00 00 00 00 80
  can0  321   [8]  00 48 00 07 29 87 F7 F3
  can0  202   [8]  00 5D 30 00 00 00 00 01
  can0  171   [8]  36 B0 00 00 00 00 00 00
  can0  1CA   [8]  00 00 00 00 00 00 00 00
  can0  205   [8]  00 80 00 00 00 80 00 00
  can0  255   [8]  00 00 00 00 00 00 00 00
  can0  265   [8]  65 00 00 00 00 00 14 86
  can0  280   [8]  00 00 00 00 00 00 00 00
  can0  06E   [7]  34 B7 7F A9 76 00 01
  can0  208   [8]  00 00 00 00 00 00 00 00
  can0  218   [8]  00 FF 80 00 00 00 01 7F
  can0  258   [8]  00 00 00 00 00 00 00 00
  can0  321   [8]  00 48 00 07 1A 87 F7 F3
  can0  202   [8]  00 57 38 00 00 00 00 01
  can0  171   [8]  36 B0 00 00 00 00 00 00
  can0  1CA   [8]  00 00 00 00 00 00 00 00
  can0  205   [8]  00 80 00 00 00 80 00 00
  can0  255   [8]  00 00 00 00 00 00 00 00
  can0  265   [8]  64 00 00 00 00 00 14 87
  can0  275   [1]  01
  can0  280   [8]  00 00 00 00 00 00 00 00
  can0  400   [3]  15 00 30
  can0  411   [3]  E7 00 00
  can0  500   [7]  41 A0 00 2C 01 00 5A
  can0  510   [5]  5E 73 6C 00 41
  can0  620   [6]  A4 00 47 44 76 11
  can0  00A   [8]  8C 0B 00 00 00 00 00 00
  can0  06E   [7]  F1 B8 7F A9 76 00 01
  can0  218   [8]  00 FF 80 00 00 00 02 7E
  can0  321   [8]  00 48 00 07 0B 87 F7 F3
  can0  202   [8]  00 31 40 00 00 00 00 01
  can0  171   [8]  36 B0 00 00 00 00 00 00
  can0  1CA   [8]  00 00 00 00 00 00 00 00
  can0  205   [8]  00 80 00 00 00 80 00 00
  can0  255   [8]  00 00 00 00 00 00 00 00
  can0  265   [8]  63 00 00 00 00 00 14 88
  can0  280   [8]  00 00 00 00 00 00 00 00
  can0  06E   [7]  B7 B9 7F A9 76 00 01
  can0  208   [8]  00 00 00 00 00 00 00 00
  can0  218   [8]  00 FF 80 00 00 00 03 7D
  can0  258   [8]  00 00 00 00 00 00 00 00
  can0  321   [8]  00 48 00 07 7C 87 F7 F3
  can0  00A   [8]  02 0C 00 00 00 00 00 00
  can0  171   [8]  36 B0 00 00 00 00 00 00
  can0  1CA   [8]  00 00 00 00 00 00 00 00
  can0  202   [8]  00 3B 48 00 00 00 00 01
  can0  205   [8]  00 80 00 00 00 80 00 00
  can0  255   [8]  00 00 00 00 00 00 00 00
  can0  265   [8]  62 00 00 00 00 00 14 89
  can0  280   [8]  00 00 00 00 00 00 00 00
  can0  06E   [7]  7D BA 7F A9 76 00 01
  can0  218   [8]  00 FF 80 00 00 00 04 7C
  can0  321   [8]  00 48 00 07 6D 87 F7 F3
  can0  202   [8]  00 25 50 00 00 00 00 01
  can0  171   [8]  36 B0 00 00 00 00 00 00
  can0  1CA   [8]  00 00 00 00 00 00 00 00
  can0  205   [8]  00 80 00 00 00 80 00 00
  can0  255   [8]  00 00 00 00 00 00 00 00
  can0  265   [8]  61 00 00 00 00 00 14 8A
  can0  280   [8]  00 00 00 00 00 00 00 00
  can0  06E   [7]  3B BB 7F A9 76 00 01
  can0  00A   [8]  5F 0D 00 00 00 00 00 00
  can0  208   [8]  00 00 00 00 00 00 00 00
  can0  218   [8]  00 FF 80 00 00 00 05 7B
  can0  258   [8]  00 00 00 00 00 00 00 00
  can0  321   [8]  00 48 00 07 5E 87 F7 F3
  can0  202   [8]  00 2F 58 00 00 00 00 01
  can0  171   [8]  36 B0 00 00 00 00 00 00
  can0  1CA   [8]  00 00 00 00 00 00 00 00
  can0  205   [8]  00 80 00 00 00 80 00 00
  can0  255   [8]  00 00 00 00 00 00 00 00
  can0  265   [8]  60 00 00 00 00 00 14 8B
  can0  280   [8]  00 00 00 00 00 00 00 00
  can0  06E   [7]  F4 BC 7F A9 76 00 01
  can0  218   [8]  00 FF 80 00 00 00 06 7A
  can0  321   [8]  00 48 00 07 4F 87 F7 F3
  can0  202   [8]  00 19 60 00 00 00 00 01
  can0  171   [8]  36 B0 00 00 00 00 00 00
  can0  1CA   [8]  00 00 00 00 00 00 00 00
  can0  205   [8]  00 80 00 00 00 80 00 00
  can0  255   [8]  00 00 00 00 00 00 00 00
  can0  265   [8]  5F 00 00 00 00 00 14 8C
  can0  280   [8]  00 00 00 00 00 00 00 00
  can0  06E   [7]  B2 BD 7F A9 76 00 01
  can0  208   [8]  00 00 00 00 00 00 00 00
  can0  218   [8]  00 FF 80 00 00 00 07 79
  can0  258   [8]  00 00 00 00 00 00 00 00
  can0  321   [8]  00 48 00 07 B0 87 F7 F3
  can0  202   [8]  00 13 68 00 00 00 00 01
  can0  171   [8]  36 B0 00 00 00 00 00 00
  can0  1CA   [8]  00 00 00 00 00 00 00 00
  can0  205   [8]  00 80 00 00 00 80 00 00
  can0  255   [8]  00 00 00 00 00 00 00 00
  can0  265   [8]  5E 00 00 00 00 00 14 8D
  can0  280   [8]  00 00 00 00 00 00 00 00
  can0  00A   [8]  B8 0E 00 00 00 00 00 00
  can0  06E   [7]  78 BE 7F A9 76 00 01
  can0  218   [8]  00 FF 80 00 00 00 08 78
  can0  321   [8]  00 48 00 07 A1 87 F7 F3
  can0  202   [8]  00 0D 70 00 00 00 00 01
  can0  171   [8]  36 B0 00 00 00 00 00 00
  can0  1CA   [8]  00 00 00 00 00 00 00 00
  can0  205   [8]  00 80 00 00 00 80 00 00
  can0  255   [8]  00 00 00 00 00 00 00 00
  can0  265   [8]  5D 00 00 00 00 00 14 8E
  can0  280   [8]  00 00 00 00 00 00 00 00
  can0  06E   [7]  3E BF 7F A9 76 00 01
  can0  618   [8]  00 00 00 44 8C 00 0F C7
  can0  430   [8]  77 00 00 00 00 00 00 00
  can0  00A   [8]  E5 0F 00 00 00 00 00 00
  can0  185   [8]  5A 64 3F FD 7F AA F1 D8
  can0  208   [8]  00 00 00 00 00 00 00 00
  can0  218   [8]  00 FF 80 00 00 00 09 77
  can0  258   [8]  00 00 00 00 00 00 00 00
  can0  285   [8]  01 3C 00 00 00 00 00 F0
  can0  321   [8]  00 48 00 07 92 87 F7 F3
  can0  375   [8]  CA 80 0C 64 41 40 A6 FF
  can0  385   [8]  00 00 00 00 00 00 00 2A
  can0  171   [8]  36 B0 00 00 00 00 00 00
  can0  1CA   [8]  00 00 00 00 00 00 00 00
  can0  202   [8]  00 07 78 00 00 00 00 01
  can0  205   [8]  00 80 00 00 00 80 00 00
  can0  255   [8]  00 00 00 00 00 00 00 00
  can0  265   [8]  5C 00 00 00 00 00 14 8F
  can0  280   [8]  00 00 00 00 00 00 00 00
  can0  390   [8]  00 00 00 00 00 00 00 00
  can0  485   [8]  54 43 11 28 C1 1A F0 05
  can0  617   [8]  00 00 00 00 00 00 0F 0F
  can0  630   [7]  DD 0D 00 00 00 E0 06
  can0  600   [5]  8C 00 00 00 00
  can0  06E   [7]  FB B0 7F A9 76 00 01
  can0  382   [8]  53 0C 00 D0 00 D5 FE 70
  can0  218   [8]  00 FF 80 00 00 00 0A 76
  can0  321   [8]  00 48 00 07 83 87 F7 F3
  can0  202   [8]  00 61 00 00 00 00 00 01
  can0  171   [8]  36 B0 00 00 00 00 00 00
  can0  1CA   [8]  00 00 00 00 00 00 00 00
  can0  205   [8]  00 80 00 00 00 80 00 00
  can0  255   [8]  00 00 00 00 00 00 00 00
  can0  265   [8]  6B 00 00 00 00 00 14 80
  can0  280   [8]  00 00 00 00 00 00 00 00
  can0  06E   [7]  BD B1 7F A9 76 00 01
  can0  208   [8]  00 00 00 00 00 00 00 00
  can0  218   [8]  00 FF 80 00 00 00 0B 75
  can0  258   [8]  00 00 00 00 00 00 00 00
  can0  321   [8]  00 48 00 07 F4 87 F7 F3
  can0  202   [8]  00 6B 08 00 00 00 00 01
  can0  171   [8]  36 B0 00 00 00 00 00 00
  can0  1CA   [8]  00 00 00 00 00 00 00 00
  can0  205   [8]  00 80 00 00 00 80 00 00
  can0  255   [8]  00 00 00 00 00 00 00 00
  can0  265   [8]  6A 00 00 00 00 00 14 81
  can0  275   [1]  01
  can0  280   [8]  00 00 00 00 00 00 00 00
  can0  400   [3]  59 01 30
  can0  411   [3]  AB 01 00
  can0  500   [7]  41 A0 00 2C 01 00 5A
  can0  510   [5]  5E 73 6C 01 40
  can0  620   [6]  CE 01 47 44 76 11
  can0  00A   [8]  B9 00 00 00 00 00 00 00
  can0  06E   [7]  77 B2 7F A9 76 00 01
  can0  218   [8]  00 FF 80 00 00 00 0C 74
  can0  321   [8]  00 48 00 07 E5 87 F7 F3
  can0  202   [8]  00 75 10 00 00 00 00 01
  can0  171   [8]  36 B0 00 00 00 00 00 00
  can0  1CA   [8]  00 00 00 00 00 00 00 00
  can0  205   [8]  00 80 00 00 00 80 00 00
  can0  255   [8]  00 00 00 00 00 00 00 00
  can0  265   [8]  69 00 00 00 00 00 14 82
  can0  280   [8]  00 00 00 00 00 00 00 00
  can0  06E   [7]  31 B3 7F A9 76 00 01
  can0  208   [8]  00 00 00 00 00 00 00 00
  can0  218   [8]  00 FF 80 00 00 00 0D 73
  can0  258   [8]  00 00 00 00 00 00 00 00
  can0  321   [8]  00 48 00 07 D6 87 F7 F3
  can0  00A   [8]  E4 01 00 00 00 00 00 00
  can0  171   [8]  36 B0 00 00 00 00 00 00
  can0  1CA   [8]  00 00 00 00 00 00 00 00
  can0  202   [8]  00 7F 18 00 00 00 00 01
  can0  205   [8]  00 80 00 00 00 80 00 00
  can0  255   [8]  00 00 00 00 00 00 00 00
  can0  265   [8]  68 00 00 00 00 00 14 83
  can0  280   [8]  00 00 00 00 00 00 00 00
  can0  06E   [7]  FE B4 7F A9 76 00 01
  can0  218   [8]  00 FF 80 00 00 00 0E 72
  can0  321   [8]  00 48 00 07 C7 87 F7 F3
  can0  202   [8]  00 49 20 00 00 00 00 01
  can0  171   [8]  36 B0 00 00 00 00 00 00
  can0  1CA   [8]  00 00 00 00 00 00 00 00
  can0  205   [8]  00 80 00 00 00 80 00 00
  can0  255   [8]  00 00 00 00 00 00 00 00
  can0  265   [8]  67 00 00 00 00 00 14 84
  can0  280   [8]  00 00 00 00 00 00 00 00
  can0  06E   [7]  B8 B5 7F A9 76 00 01
  can0  00A   [8]  03 02 00 00 00 00 00 00
  can0  208   [8]  00 00 00 00 00 00 00 00
  can0  218   [8]  00 FF 80 00 00 00 0F 71
  can0  258   [8]  00 00 00 00 00 00 00 00
  can0  321   [8]  00 48 00 07 38 87 F7 F3
  can0  202   [8]  00 43 28 00 00 00 00 01
  can0  171   [8]  36 B0 00 00 00 00 00 00
  can0  1CA   [8]  00 00 00 00 00 00 00 00
  can0  205   [8]  00 80 00 00 00 80 00 00
  can0  255   [8]  00 00 00 00 00 00 00 00
  can0  265   [8]  66 00 00 00 00 00 14 85
  can0  280   [8]  00 00 00 00 00 00 00 00
  can0  06E   [7]  72 B6 7F A9 76 00 01
  can0  218   [8]  00 FF 80 00 00 00 00 80
  can0  321   [8]  00 48 00 07 29 87 F7 F3
  can0  202   [8]  00 5D 30 00 00 00 00 01
  can0  171   [8]  36 B0 00 00 00 00 00 00
  can0  1CA   [8]  00 00 00 00 00 00 00 00
  can0  205   [8]  00 80 00 00 00 80 00 00
  can0  255   [8]  00 00 00 00 00 00 00 00
  can0  265   [8]  65 00 00 00 00 00 14 86
  can0  280   [8]  00 00 00 00 00 00 00 00
  can0  06E   [7]  34 B7 7F A9 76 00 01
  can0  208   [8]  00 00 00 00 00 00 00 00
  can0  218   [8]  00 FF 80 00 00 00 01 7F
  can0  258   [8]  00 00 00 00 00 00 00 00
  can0  321   [8]  00 48 00 07 1A 87 F7 F3
  can0  202   [8]  00 57 38 00 00 00 00 01
  can0  171   [8]  36 B0 00 00 00 00 00 00
  can0  1CA   [8]  00 00 00 00 00 00 00 00
  can0  205   [8]  00 80 00 00 00 80 00 00
  can0  255   [8]  00 00 00 00 00 00 00 00
  can0  265   [8]  64 00 00 00 00 00 14 87
  can0  280   [8]  00 00 00 00 00 00 00 00
  can0  00A   [8]  5E 03 00 00 00 00 00 00
  can0  06E   [7]  F1 B8 7F A9 76 00 01
  can0  218   [8]  00 FF 80 00 00 00 02 7E
  can0  321   [8]  00 48 00 07 0B 87 F7 F3
  can0  202   [8]  00 31 40 00 00 00 00 01
  can0  171   [8]  36 B0 00 00 00 00 00 00
  can0  1CA   [8]  00 00 00 00 00 00 00 00
  can0  205   [8]  00 80 00 00 00 80 00 00
  can0  255   [8]  00 00 00 00 00 00 00 00
  can0  265   [8]  63 00 00 00 00 00 14 88
  can0  280   [8]  00 00 00 00 00 00 00 00
  can0  06E   [7]  B7 B9 7F A9 76 00 01
  can0  618   [8]  00 00 00 44 8C 00 00 C8
  can0  617   [8]  00 00 00 00 00 00 00 00
  can0  00A   [8]  D0 04 00 00 00 00 00 00
  can0  185   [8]  5A 64 3F FD 7F AA 01 28
  can0  208   [8]  00 00 00 00 00 00 00 00
  can0  218   [8]  00 FF 80 00 00 00 03 7D
  can0  258   [8]  00 00 00 00 00 00 00 00
  can0  285   [8]  01 3C 00 00 00 00 00 00
  can0  321   [8]  00 48 00 07 7C 87 F7 F3
  can0  375   [8]  97 81 0C 64 41 40 A6 FF
  can0  385   [8]  00 00 00 00 00 00 00 2A
  can0  171   [8]  36 B0 00 00 00 00 00 00
  can0  1CA   [8]  00 00 00 00 00 00 00 00
  can0  202   [8]  00 3B 48 00 00 00 00 01
  can0  205   [8]  00 80 00 00 00 80 00 00
  can0  255   [8]  00 00 00 00 00 00 00 00
  can0  265   [8]  62 00 00 00 00 00 14 89
  can0  280   [8]  00 00 00 00 00 00 00 00
  can0  390   [8]  00 00 00 00 00 00 00 00
  can0  430   [8]  77 00 00 00 00 00 00 00
  can0  485   [8]  54 43 11 28 C1 1A 00 F5
  can0  630   [7]  17 0E 00 00 00 E0 06
  can0  600   [5]  8C 00 00 00 00
  can0  601   [8]  73 03 00 00 CF 0F 00 69
  can0  06E   [7]  7D BA 7F A9 76 00 01
  can0  382   [8]  53 0D 00 00 00 00 00 00
  can0  218   [8]  00 FF 80 00 00 00 04 7C
  can0  621   [6]  6D 4B 86 62 00 1C
  can0  321   [8]  00 48 00 07 6D 87 F7 F3
  can0  202   [8]  00 25 50 00 00 00 00 01
  can0  171   [8]  36 B0 00 00 00 00 00 00
  can0  1CA   [8]  00 00 00 00 00 00 00 00
  can0  205   [8]  00 80 00 00 00 80 00 00
  can0  255   [8]  00 00 00 00 00 00 00 00
  can0  265   [8]  61 00 00 00 00 00 14 8A
  can0  280   [8]  00 00 00 00 00 00 00 00
  can0  06E   [7]  3B BB 7F A9 76 00 01
  can0  208   [8]  00 00 00 00 00 00 00 00
  can0  218   [8]  00 FF 80 00 00 00 05 7B
  can0  258   [8]  00 00 00 00 00 00 00 00
  can0  321   [8]  00 48 00 07 5E 87 F7 F3
  can0  202   [8]  00 2F 58 00 00 00 00 01
  can0  171   [8]  36 B0 00 00 00 00 00 00
  can0  1CA   [8]  00 00 00 00 00 00 00 00
  can0  205   [8]  00 80 00 00 00 80 00 00
  can0  255   [8]  00 00 00 00 00 00 00 00
  can0  265   [8]  60 00 00 00 00 00 14 8B
  can0  275   [1]  01
  can0  280   [8]  00 00 00 00 00 00 00 00
  can0  400   [3]  8D 02 30
  can0  411   [3]  7F 02 00
  can0  500   [7]  41 A0 00 2C 01 00 5A
  can0  510   [5]  5E 73 6C 02 43
  can0  620   [6]  70 02 47 44 76 11
  can0  00A   [8]  8D 05 00 00 00 00 00 00
  can0  06E   [7]  F4 BC 7F A9 76 00 01
  can0  218   [8]  00 FF 80 00 00 00 06 7A
  can0  321   [8]  00 48 00 07 4F 87 F7 F3
  can0  202   [8]  00 19 60 00 00 00 00 01
  can0  171   [8]  36 B0 00 00 00 00 00 00
  can0  1CA   [8]  00 00 00 00 00 00 00 00
  can0  205   [8]  00 80 00 00 00 80 00 00
  can0  255   [8]  00 00 00 00 00 00 00 00
  can0  265   [8]  5F 00 00 00 00 00 14 8C
  can0  280   [8]  00 00 00 00 00 00 00 00
  can0  06E   [7]  B2 BD 7F A9 76 00 01
  can0  208   [8]  00 00 00 00 00 00 00 00
  can0  218   [8]  00 FF 80 00 00 00 07 79
  can0  258   [8]  00 00 00 00 00 00 00 00
  can0  321   [8]  00 48 00 07 B0 87 F7 F3
  can0  00A   [8]  6A 06 00 00 00 00 00 00
  can0  171   [8]  36 B0 00 00 00 00 00 00
  can0  1CA   [8]  00 00 00 00 00 00 00 00
  can0  202   [8]  00 13 68 00 00 00 00 01
  can0  205   [8]  00 80 00 00 00 80 00 00
  can0  255   [8]  00 00 00 00 00 00 00 00
  can0  265   [8]  5E 00 00 00 00 00 14 8D
  can0  280   [8]  00 00 00 00 00 00 00 00
  can0  06E   [7]  C2 BE 7F AA 76 00 01
  can0  218   [8]  00 FF 80 00 00 00 08 78
  can0  321   [8]  00 48 00 07 A1 87 F7 F3
  can0  202   [8]  00 0D 70 00 00 00 00 01
  can0  171   [8]  36 B0 00 00 00 00 00 00
  can0  1CA   [8]  00 00 00 00 00 00 00 00
  can0  205   [8]  00 80 00 00 00 80 00 00
  can0  255   [8]  00 00 00 00 00 00 00 00
  can0  265   [8]  5D 00 00 00 00 00 14 8E
  can0  280   [8]  00 00 00 00 00 00 00 00
  can0  06E   [7]  84 BF 7F AA 76 00 01
  can0  00A   [8]  37 07 00 00 00 00 00 00
  can0  208   [8]  00 00 00 00 00 00 00 00
  can0  218   [8]  00 FF 80 00 00 00 09 77
  can0  258   [8]  00 00 00 00 00 00 00 00
  can0  321   [8]  00 48 00 07 92 87 F7 F3
  can0  202   [8]  00 07 78 00 00 00 00 01
  can0  171   [8]  36 B0 00 00 00 00 00 00
  can0  1CA   [8]  00 00 00 00 00 00 00 00
  can0  205   [8]  00 80 00 00 00 80 00 00
  can0  255   [8]  00 00 00 00 00 00 00 00
  can0  265   [8]  5C 00 00 00 00 00 14 8F
  can0  280   [8]  00 00 00 00 00 00 00 00
  can0  06E   [7]  41 B0 7F AA 76 00 01
  can0  218   [8]  00 FF 80 00 00 00 0A 76
  can0  321   [8]  00 48 00 07 83 87 F7 F3
  can0  202   [8]  00 61 00 00 00 00 00 01
  can0  171   [8]  36 B0 00 00 00 00 00 00
  can0  1CA   [8]  00 00 00 00 00 00 00 00
  can0  205   [8]  00 80 00 00 00 80 00 00
  can0  255   [8]  00 00 00 00 00 00 00 00
  can0  265   [8]  6B 00 00 00 00 00 14 80
  can0  280   [8]  00 00 00 00 00 00 00 00
  can0  06E   [7]  07 B1 7F AA 76 00 01
  can0  208   [8]  00 00 00 00 00 00 00 00
  can0  218   [8]  00 FF 80 00 00 00 0B 75
  can0  258   [8]  00 00 00 00 00 00 00 00
  can0  321   [8]  00 48 00 07 F4 87 F7 F3
  can0  202   [8]  00 6B 08 00 00 00 00 01
  can0  171   [8]  36 B0 00 00 00 00 00 00
  can0  1CA   [8]  00 00 00 00 00 00 00 00
  can0  205   [8]  00 80 00 00 00 80 00 00
  can0  255   [8]  00 00 00 00 00 00 00 00
  can0  265   [8]  6A 00 00 00 00 00 14 81
  can0  280   [8]  00 00 00 00 00 00 00 00
  can0  00A   [8]  6B 08 00 00 00 00 00 00
  can0  06E   [7]  CD B2 7F AA 76 00 01
  can0  218   [8]  00 FF 80 00 00 00 0C 74
  can0  321   [8]  00 48 00 07 E5 87 F7 F3
  can0  202   [8]  00 75 10 00 00 00 00 01
  can0  171   [8]  36 B0 00 00 00 00 00 00
  can0  1CA   [8]  00 00 00 00 00 00 00 00
  can0  205   [8]  00 80 00 00 00 80 00 00
  can0  255   [8]  00 00 00 00 00 00 00 00
  can0  265   [8]  69 00 00 00 00 00 14 82
  can0  280   [8]  00 00 00 00 00 00 00 00
  can0  06E   [7]  8B B3 7F AA 76 00 01
  can0  618   [8]  00 00 00 44 8C 00 01 C9
  can0  430   [8]  77 00 00 00 00 00 00 00
  can0  00A   [8]  36 09 00 00 00 00 00 00
  can0  185   [8]  5A 64 3F FD 7F AA 11 38
  can0  208   [8]  00 00 00 00 00 00 00 00
  can0  218   [8]  00 FF 80 00 00 00 0D 73
  can0  258   [8]  00 00 00 00 00 00 00 00
  can0  285   [8]  01 3C 00 00 00 00 00 10
  can0  321   [8]  00 48 00 07 D6 87 F7 F3
  can0  375   [8]  70 82 0C 64 41 40 A6 FF
  can0  385   [8]  00 00 00 00 00 00 00 2A
  can0  171   [8]  36 B0 00 00 00 00 00 00
  can0  1CA   [8]  00 00 00 00 00 00 00 00
  can0  202   [8]  00 7F 18 00 00 00 00 01
  can0  205   [8]  00 80 00 00 00 80 00 00
  can0  255   [8]  00 00 00 00 00 00 00 00
  can0  265   [8]  68 00 00 00 00 00 14 83
  can0  280   [8]  00 00 00 00 00 00 00 00
  can0  390   [8]  00 00 00 00 00 00 00 00
  can0  485   [8]  54 43 11 28 C1 1A 10 E5
  can0  617   [8]  00 00 00 00 00 00 01 01
  can0  630   [7]  51 0F 00 00 00 E0 06
  can0  600   [5]  8C 00 00 00 00
  can0  06E   [7]  44 B4 7F AA 76 00 01
  can0  382   [8]  53 0E 00 00 00 00 00 00
  can0  218   [8]  00 FF 80 00 00 00 0E 72
  can0  321   [8]  00 48 00 07 C7 87 F7 F3
  can0  202   [8]  00 49 20 00 00 00 00 01
  can0  171   [8]  36 B0 00 00 00 00 00 00
  can0  1CA   [8]  00 00 00 00 00 00 00 00
  can0  205   [8]  00 80 00 00 00 80 00 00
  can0  255   [8]  00 00 00 00 00 00 00 00
  can0  265   [8]  67 00 00 00 00 00 14 84
  can0  280   [8]  00 00 00 00 00 00 00 00
  can0  06E   [7]  02 B5 7F AA 76 00 01
  can0  208   [8]  00 00 00 00 00 00 00 00
  can0  218   [8]  00 FF 80 00 00 00 0F 71
  can0  258   [8]  00 00 00 00 00 00 00 00
  can0  321   [8]  00 48 00 07 38 87 F7 F3
  can0  202   [8]  00 43 28 00 00 00 00 01
  can0  171   [8]  36 B0 00 00 00 00 00 00
  can0  1CA   [8]  00 00 00 00 00 00 00 00
  can0  205   [8]  00 80 00 00 00 80 00 00
  can0  255   [8]  00 00 00 00 00 00 00 00
  can0  265   [8]  66 00 00 00 00 00 14 85
  can0  275   [1]  01
  can0  280   [8]  00 00 00 00 00 00 00 00
  can0  400   [3]  C1 03 30
  can0  411   [3]  33 03 00
  can0  4F0   [1]  00
  can0  500   [7]  41 A0 00 2C 01 00 5A
  can0  505   [2]  01 05
  can0  510   [5]  5E 73 6C 03 42
  can0  620   [6]  1A 03 47 44 76 11
  can0  00A   [8]  D1 0A 00 00 00 00 00 00
  can0  5F3   [1]  00
  can0  06E   [7]  C8 B6 7F AA 76 00 01
  can0  218   [8]  00 FF 80 00 00 00 00 80
  can0  321   [8]  00 48 00 07 29 87 F7 F3
  can0  202   [8]  00 5D 30 00 00 00 00 01
  can0  171   [8]  36 B0 00 00 00 00 00 00
  can0  1CA   [8]  00 00 00 00 00 00 00 00
  can0  205   [8]  00 80 00 00 00 80 00 00
  can0  255   [8]  00 00 00 00 00 00 00 00
  can0  265   [8]  65 00 00 00 00 00 14 86
  can0  280   [8]  00 00 00 00 00 00 00 00
  can0  06E   [7]  8E B7 7F AA 76 00 01
  can0  208   [8]  00 00 00 00 00 00 00 00
  can0  218   [8]  00 FF 80 00 00 00 01 7F
  can0  258   [8]  00 00 00 00 00 00 00 00
  can0  321   [8]  00 48 00 07 1A 87 F7 F3
  can0  00A   [8]  8C 0B 00 00 00 00 00 00
  can0  171   [8]  36 B0 00 00 00 00 00 00
  can0  1CA   [8]  00 00 00 00 00 00 00 00
  can0  202   [8]  00 57 38 00 00 00 00 01
  can0  205   [8]  00 80 00 00 00 80 00 00
  can0  255   [8]  00 00 00 00 00 00 00 00
  can0  265   [8]  64 00 00 00 00 00 14 87
  can0  280   [8]  00 00 00 00 00 00 00 00
  can0  06E   [7]  F1 B8 7F A9 76 00 01
  can0  218   [8]  00 FF 80 00 00 00 02 7E
  can0  321   [8]  00 48 00 07 0B 87 F7 F3
  can0  202   [8]  00 31 40 00 00 00 00 01
  can0  171   [8]  36 B0 00 00 00 00 00 00
  can0  1CA   [8]  00 00 00 00 00 00 00 00
  can0  205   [8]  00 80 00 00 00 80 00 00
  can0  255   [8]  00 00 00 00 00 00 00 00
  can0  265   [8]  63 00 00 00 00 00 14 88
  can0  280   [8]  00 00 00 00 00 00 00 00
  can0  06E   [7]  B7 B9 7F A9 76 00 01
  can0  00A   [8]  02 0C 00 00 00 00 00 00
  can0  208   [8]  00 00 00 00 00 00 00 00
  can0  218   [8]  00 FF 80 00 00 00 03 7D
  can0  258   [8]  00 00 00 00 00 00 00 00
  can0  321   [8]  00 48 00 07 7C 87 F7 F3
  can0  202   [8]  00 3B 48 00 00 00 00 01
  can0  171   [8]  36 B1 00 00 00 00 00 00
  can0  1CA   [8]  00 00 00 00 00 00 00 00
  can0  205   [8]  00 80 00 00 00 80 00 00
  can0  255   [8]  00 00 00 04 00 00 00 00
  can0  265   [8]  62 00 00 00 00 00 14 89
  can0  280   [8]  00 00 00 00 00 00 00 00
  can0  06E   [7]  7D BA 7F A9 76 00 01
  can0  218   [8]  00 FF 80 00 00 00 04 7C
  can0  321   [8]  00 48 00 07 6D 87 F7 F3
  can0  202   [8]  00 25 50 00 00 00 00 01
  can0  171   [8]  36 B0 00 00 00 00 00 00
  can0  1CA   [8]  00 00 00 00 00 00 00 00
  can0  205   [8]  00 80 00 00 00 80 00 00
  can0  255   [8]  00 00 00 00 00 00 00 00
  can0  265   [8]  61 00 00 00 00 00 14 8A
  can0  280   [8]  00 00 00 00 00 00 00 00
  can0  06E   [7]  3B BB 7F A9 76 00 01
  can0  208   [8]  00 00 00 00 00 00 00 00
  can0  218   [8]  00 FF 80 00 00 00 05 7B
  can0  258   [8]  00 00 00 00 00 00 00 00
  can0  321   [8]  00 48 00 07 5E 87 F7 F3
  can0  202   [8]  00 2F 58 00 00 00 00 01
  can0  171   [8]  36 B0 00 00 00 00 00 00
  can0  1CA   [8]  00 00 00 00 00 00 00 00
  can0  205   [8]  00 80 00 00 00 80 00 00
  can0  255   [8]  00 00 00 00 00 00 00 00
  can0  265   [8]  60 00 00 00 00 00 14 8B
  can0  280   [8]  00 00 00 00 00 00 00 00
  can0  00A   [8]  5F 0D 00 00 00 00 00 00
  can0  06E   [7]  F4 BC 7F A9 76 00 01
  can0  218   [8]  00 FF 80 00 00 00 06 7A
  can0  321   [8]  00 48 00 07 4F 87 F7 F3
  can0  202   [8]  00 04 60 00 00 00 00 00
  can0  171   [8]  36 B0 00 00 00 00 00 00
  can0  1CA   [8]  00 00 00 00 00 00 00 00
  can0  205   [8]  00 80 00 00 00 80 00 00
  can0  255   [8]  00 00 00 00 00 00 00 00
  can0  265   [8]  5F 00 00 00 00 00 14 8C
  can0  280   [8]  00 00 00 00 00 00 00 00
  can0  06E   [7]  B2 BD 7F A9 76 00 01
  can0  618   [8]  00 00 00 44 8C 00 02 CA
  can0  208   [8]  00 00 00 00 00 00 00 00
  can0  00A   [8]  B8 0E 00 00 00 00 00 00
  can0  037   [6]  50 C3 00 00 00 30
  can0  185   [8]  5A 64 3F FD 7F AA 21 08
  can0  218   [8]  00 FF 80 00 00 00 07 79
  can0  258   [8]  00 00 00 00 00 00 00 00
  can0  285   [8]  01 3C 00 00 00 00 00 20
  can0  375   [8]  2D 83 0C 64 41 40 A6 FF
  can0  321   [8]  00 48 00 07 B0 87 F7 F3
  can0  385   [8]  00 00 00 00 00 00 00 2A
  can0  202   [8]  00 0E 68 00 00 00 00 00
  can0  171   [8]  36 B0 00 00 00 00 00 00
  can0  1CA   [8]  00 00 00 00 00 00 00 00
  can0  205   [8]  00 80 00 00 00 80 00 00
  can0  255   [8]  00 00 00 00 00 00 00 00
  can0  265   [8]  5E 00 00 00 00 00 14 8D
  can0  280   [8]  00 00 00 00 00 00 00 00
  can0  390   [8]  00 00 00 00 00 00 00 00
  can0  430   [8]  77 00 00 00 00 00 00 00
  can0  485   [8]  54 43 11 28 C1 1A 20 D5
  can0  617   [8]  00 00 00 00 00 00 02 02
  can0  630   [7]  94 00 00 00 00 E0 06
  can0  600   [5]  8C 00 00 00 00
  can0  06E   [7]  78 BE 7F A9 76 00 01
  can0  382   [8]  53 0F 00 00 00 00 00 00
  can0  218   [8]  00 FF 80 00 00 00 08 78
  can0  321   [8]  00 48 00 07 A1 87 F7 F3
  can0  202   [8]  00 10 70 00 00 00 00 00
  can0  171   [8]  36 B0 00 00 00 00 00 00
  can0  1CA   [8]  00 00 00 00 00 00 00 00
  can0  205   [8]  00 80 00 00 00 80 00 00
  can0  255   [8]  00 00 00 00 00 00 00 00
  can0  265   [8]  5D 00 00 00 00 00 14 8E
  can0  280   [8]  00 00 00 00 00 00 00 00
  can0  06E   [7]  3E BF 7F A9 76 00 01
  can0  208   [8]  00 00 00 00 00 00 00 00
  can0  218   [8]  00 FF 80 00 00 00 09 77
  can0  258   [8]  00 00 00 00 00 00 00 00
  can0  321   [8]  00 48 00 07 92 87 F7 F3
  can0  202   [8]  00 1A 78 00 00 00 00 00
  can0  171   [8]  36 B0 00 00 00 00 00 00
  can0  1CA   [8]  00 00 00 00 00 00 00 00
  can0  205   [8]  00 80 00 00 00 80 00 00
  can0  255   [8]  00 00 00 00 00 00 00 00
  can0  265   [8]  5C 00 00 00 00 00 14 8F
  can0  275   [1]  01
  can0  280   [8]  00 00 00 00 00 00 00 00
  can0  400   [3]  38 04 30
  can0  411   [3]  CA 04 00
  can0  500   [7]  41 A0 00 2C 01 00 5A
  can0  510   [5]  5E 73 6C 04 45
  can0  620   [6]  11 04 47 44 76 11
  can0  00A   [8]  E5 0F 00 00 00 00 00 00
  can0  06E   [7]  FB B0 7F A9 76 00 01
  can0  218   [8]  00 FF 80 00 00 00 0A 76
  can0  321   [8]  00 48 00 07 83 87 F7 F3
  can0  202   [8]  00 7C 00 00 00 00 00 00
  can0  171   [8]  36 B0 00 00 00 00 00 00
  can0  1CA   [8]  00 00 00 00 00 00 00 00
  can0  205   [8]  00 80 00 00 00 80 00 00
  can0  255   [8]  00 00 00 00 00 00 00 00
  can0  265   [8]  6B 00 00 00 00 00 14 80
  can0  280   [8]  00 00 00 00 00 00 00 00
  can0  06E   [7]  BD B1 7F A9 76 00 01
  can0  208   [8]  00 00 00 00 00 00 00 00
  can0  218   [8]  00 FF 80 00 00 00 0B 75
  can0  258   [8]  00 00 00 00 00 00 00 00
  can0  321   [8]  00 48 00 07 F4 87 F7 F3
  can0  00A   [8]  B9 00 00 00 00 00 00 00
  can0  171   [8]  36 B0 00 00 00 00 00 00
  can0  1CA   [8]  00 00 00 00 00 00 00 00
  can0  202   [8]  00 76 08 00 00 00 00 00
  can0  205   [8]  00 80 00 00 00 80 00 00
  can0  255   [8]  00 00 00 00 00 00 00 00
  can0  265   [8]  6A 00 00 00 00 00 14 81
  can0  280   [8]  00 00 00 00 00 00 00 00
  can0  06E   [7]  CD B2 7F AA 76 00 01
  can0  218   [8]  00 FF 80 00 00 00 0C 74
  can0  321   [8]  00 48 00 07 E5 87 F7 F3
  can0  202   [8]  00 68 10 00 00 00 00 00
  can0  171   [8]  36 AE 00 00 00 00 00 00
  can0  1CA   [8]  00 00 00 00 00 00 00 00
  can0  205   [8]  00 80 00 00 00 80 00 00
  can0  255   [8]  00 00 00 00 00 00 00 00
  can0  265   [8]  69 00 00 00 00 00 14 82
  can0  280   [8]  00 00 00 00 00 00 00 00
  can0  06E   [7]  8B B3 7F AA 76 00 01
  can0  00A   [8]  E4 01 00 00 00 00 00 00
  can0  208   [8]  00 00 00 00 00 00 00 00
  can0  218   [8]  00 FF 80 00 00 00 0D 73
  can0  258   [8]  00 00 00 00 00 00 00 00
  can0  321   [8]  00 48 00 07 D6 87 F7 F3
  can0  202   [8]  00 62 18 00 00 00 00 00
  can0  171   [8]  36 B0 00 00 00 00 00 00
  can0  1CA   [8]  00 00 00 00 00 00 00 00
  can0  205   [8]  00 80 00 00 00 80 00 00
  can0  255   [8]  00 00 00 00 00 00 00 00
  can0  265   [8]  68 00 00 00 00 00 14 83
  can0  280   [8]  00 00 00 00 00 00 00 00
  can0  06E   [7]  44 B4 7F AA 76 00 01
  can0  218   [8]  00 FF 80 00 00 00 0E 72
  can0  321   [8]  00 48 00 07 C7 87 F7 F3
  can0  202   [8]  00 54 20 00 00 00 00 00
  can0  171   [8]  36 B0 00 00 00 00 00 00
  can0  1CA   [8]  00 00 00 00 00 00 00 00
  can0  205   [8]  00 80 00 00 00 80 00 00
  can0  255   [8]  00 00 00 00 00 00 00 00
  can0  265   [8]  67 00 00 00 00 00 14 84
  can0  280   [8]  00 00 00 00 00 00 00 00
  can0  06E   [7]  02 B5 7F AA 76 00 01
  can0  208   [8]  00 00 00 00 00 00 00 00
  can0  218   [8]  00 FF 80 00 00 00 0F 71
  can0  258   [8]  00 00 00 00 00 00 00 00
  can0  321   [8]  00 48 00 07 38 87 F7 F3
  can0  202   [8]  00 5E 28 00 00 00 00 00
  can0  171   [8]  36 B0 00 00 00 00 00 00
  can0  1CA   [8]  00 00 00 00 00 00 00 00
  can0  205   [8]  00 80 00 00 00 80 00 00
  can0  255   [8]  00 00 00 00 00 00 00 00
  can0  265   [8]  66 00 00 00 00 00 14 85
  can0  280   [8]  00 00 00 00 00 00 00 00
  can0  00A   [8]  03 02 00 00 00 00 00 00
  can0  06E   [7]  C8 B6 7F AA 76 00 01
  can0  218   [8]  00 FF 80 00 00 00 00 80
  can0  321   [8]  00 48 00 07 29 87 F7 F3
  can0  202   [8]  00 40 30 00 00 00 00 00
  can0  171   [8]  36 B0 00 00 00 00 00 00
  can0  1CA   [8]  00 00 00 00 00 00 00 00
  can0  205   [8]  00 80 00 00 00 80 00 00
  can0  255   [8]  00 00 00 00 00 00 00 00
  can0  265   [8]  65 00 00 00 00 00 14 86
  can0  280   [8]  00 00 00 00 00 00 00 00
  can0  06E   [7]  8E B7 7F AA 76 00 01
  can0  618   [8]  00 00 00 44 8C 00 03 CB
  can0  208   [8]  00 00 00 00 00 00 00 00
  can0  00A   [8]  5E 03 00 00 00 00 00 00
  can0  185   [8]  5A 64 3F FD 7F AA 31 18
  can0  218   [8]  00 FF 80 00 00 00 01 7F
  can0  258   [8]  00 00 00 00 00 00 00 00
  can0  285   [8]  01 3C 00 00 00 00 00 30
  can0  375   [8]  A3 84 0C 64 41 40 A6 FF
  can0  385   [8]  00 00 00 00 00 00 00 2A
  can0  430   [8]  77 00 00 00 00 00 00 00
  can0  321   [8]  00 48 00 07 1A 87 F7 F3
  can0  171   [8]  36 B0 00 00 00 00 00 00
  can0  1CA   [8]  00 00 00 00 00 00 00 00
  can0  202   [8]  00 4A 38 00 00 00 00 00
  can0  205   [8]  00 80 00 00 00 80 00 00
  can0  255   [8]  00 00 00 00 00 00 00 00
  can0  265   [8]  64 00 00 00 00 00 14 87
  can0  280   [8]  00 00 00 00 00 00 00 00
  can0  390   [8]  00 00 00 00 00 00 00 00
  can0  485   [8]  54 43 11 28 C1 1A 30 C5
  can0  617   [8]  00 00 00 00 00 00 03 03
  can0  630   [7]  D2 01 00 00 00 E0 06
  can0  600   [5]  8C 00 00 00 00
  can0  06E   [7]  4B B8 7F AA 76 00 01
  can0  382   [8]  53 10 00 00 00 00 10 04
  can0  218   [8]  00 FF 80 00 00 00 02 7E
  can0  321   [8]  00 48 00 07 0B 87 F7 F3
  can0  202   [8]  00 2C 40 00 00 00 00 00
  can0  171   [8]  36 B0 00 00 00 00 00 00
  can0  1CA   [8]  00 00 00 00 00 00 00 00
  can0  205   [8]  00 80 00 00 00 80 00 00
  can0  255   [8]  00 00 00 00 00 00 00 00
  can0  265   [8]  63 00 00 00 00 00 14 88
  can0  280   [8]  00 00 00 00 00 00 00 00
  can0  06E   [7]  0D B9 7F AA 76 00 01
  can0  208   [8]  00 00 00 00 00 00 00 00
  can0  218   [8]  00 FF 80 00 00 00 03 7D
  can0  258   [8]  00 00 00 00 00 00 00 00
  can0  321   [8]  00 48 00 07 7C 87 F7 F3
  can0  202   [8]  00 26 48 00 00 00 00 00
  can0  171   [8]  36 B0 00 00 00 00 00 00
  can0  1CA   [8]  00 00 00 00 00 00 00 00
  can0  205   [8]  00 80 00 00 00 80 00 00
  can0  255   [8]  00 00 00 00 00 00 00 00
  can0  265   [8]  62 00 00 00 00 00 14 89
  can0  275   [1]  01
  can0  280   [8]  00 00 00 00 00 00 00 00
  can0  400   [3]  74 05 30
  can0  411   [3]  86 05 00
  can0  500   [7]  41 A0 00 2C 01 00 5A
  can0  510   [5]  5E 73 6C 05 44
  can0  620   [6]  7B 05 47 44 76 11
  can0  00A   [8]  D0 04 00 00 00 00 00 00
  can0  06E   [7]  C7 BA 7F AA 76 00 01
  can0  218   [8]  00 FF 80 00 00 00 04 7C
  can0  321   [8]  00 48 00 07 6D 87 F7 F3
  can0  202   [8]  00 38 50 00 00 00 00 00
  can0  171   [8]  36 B0 00 00 00 00 00 00
  can0  1CA   [8]  00 00 00 00 00 00 00 00
  can0  205   [8]  00 80 00 00 00 80 00 00
  can0  255   [8]  00 00 00 00 00 00 00 00
  can0  265   [8]  61 00 00 00 00 00 14 8A
  can0  280   [8]  00 00 00 00 00 00 00 00
  can0  06E   [7]  81 BB 7F AA 76 00 01
  can0  208   [8]  00 00 00 00 00 00 00 00
  can0  218   [8]  00 FF 80 00 00 00 05 7B
  can0  258   [8]  00 00 00 00 00 00 00 00
  can0  321   [8]  00 48 00 07 5E 87 F7 F3
  can0  00A   [8]  8D 05 00 00 00 00 00 00
  can0  171   [8]  36 B0 00 00 00 00 00 00
  can0  1CA   [8]  00 00 00 00 00 00 00 00
  can0  202   [8]  00 32 58 00 00 00 00 00
  can0  205   [8]  00 80 00 00 00 80 00 00
  can0  255   [8]  00 00 00 00 00 00 00 00
  can0  265   [8]  60 00 00 00 00 00 14 8B
  can0  280   [8]  00 00 00 00 00 00 00 00
  can0  06E   [7]  4E BC 7F AA 76 00 01
  can0  218   [8]  00 FF 80 00 00 00 06 7A
  can0  321   [8]  00 48 00 07 4F 87 F7 F3
  can0  202   [8]  00 04 60 00 00 00 00 00
  can0  171   [8]  36 B0 00 00 00 00 00 00
  can0  1CA   [8]  00 00 00 00 00 00 00 00
  can0  205   [8]  00 80 00 00 00 80 00 00
  can0  255   [8]  00 00 00 00 00 00 00 00
  can0  265   [8]  5F 00 00 00 00 00 14 8C
  can0  280   [8]  00 00 00 00 00 00 00 00
  can0  06E   [7]  08 BD 7F AA 76 00 01
  can0  00A   [8]  6A 06 00 00 00 00 00 00
  can0  208   [8]  00 00 00 00 00 00 00 00
  can0  218   [8]  00 FF 80 00 00 00 07 79
  can0  258   [8]  00 00 00 00 00 00 00 00
  can0  321   [8]  00 48 00 07 B0 87 F7 F3
  can0  202   [8]  00 0E 68 00 00 00 00 00
  can0  171   [8]  36 B0 00 00 00 00 00 00
  can0  1CA   [8]  00 00 00 00 00 00 00 00
  can0  205   [8]  00 80 00 00 00 80 00 00
  can0  255   [8]  00 00 00 00 00 00 00 00
  can0  265   [8]  5E 00 00 00 00 00 14 8D
  can0  280   [8]  00 00 00 00 00 00 00 00
  can0  06E   [7]  C2 BE 7F AA 76 00 01
  can0  218   [8]  00 FF 80 00 00 00 08 78
  can0  321   [8]  00 48 00 07 A1 87 F7 F3
  can0  171   [8]  36 B0 00 00 00 00 00 00
  can0  1CA   [8]  00 00 00 00 00 00 00 00
  can0  202   [8]  00 10 70 00 00 00 00 00
  can0  205   [8]  00 80 00 00 00 80 00 00
  can0  255   [8]  00 00 00 00 00 00 00 00
  can0  265   [8]  5D 00 00 00 00 00 14 8E
  can0  280   [8]  00 00 00 00 00 00 00 00
  can0  06E   [7]  84 BF 7F AA 76 00 01
  can0  208   [8]  00 00 00 00 00 00 00 00
  can0  218   [8]  00 FF 80 00 00 00 09 77
  can0  258   [8]  00 00 00 00 00 00 00 00
  can0  321   [8]  00 48 00 07 92 87 F7 F3
  can0  171   [8]  36 AF 00 00 00 00 00 00
  can0  1CA   [8]  00 00 00 00 00 00 00 00
  can0  202   [8]  00 1A 78 00 00 00 00 00
  can0  205   [8]  00 80 00 00 00 80 00 00
  can0  255   [8]  00 00 00 00 00 00 00 00
  can0  265   [8]  5C 00 00 00 00 00 14 8F
  can0  280   [8]  00 00 00 00 00 00 00 00
  can0  00A   [8]  37 07 00 00 00 00 00 00
  can0  06E   [7]  41 B0 7F AA 76 00 01
  can0  218   [8]  00 FF 80 00 00 00 0A 76
  can0  321   [8]  00 48 00 07 83 87 F7 F3
  can0  171   [8]  36 B0 00 00 00 00 00 00
  can0  1CA   [8]  00 00 00 00 00 00 00 00
  can0  202   [8]  00 7C 00 00 00 00 00 00
  can0  205   [8]  00 80 00 00 00 80 00 00
  can0  255   [8]  00 00 00 00 00 00 00 00
  can0  265   [8]  6B 00 00 00 00 00 14 80
  can0  280   [8]  00 00 00 00 00 00 00 00
  can0  06E   [7]  07 B1 7F AA 76 00 01
  can0  618   [8]  00 00 00 44 8C 00 04 CC
  can0  208   [8]  00 00 00 00 00 00 00 00
  can0  00A   [8]  6B 08 00 00 00 00 00 00
  can0  185   [8]  5A 64 3F FD 7F AA 41 68
  can0  218   [8]  00 FF 80 00 00 00 0B 75
  can0  258   [8]  00 00 00 00 00 00 00 00
  can0  285   [8]  01 3C 00 00 00 00 00 40
  can0  375   [8]  FE 85 0C 64 41 40 A6 FF
  can0  385   [8]  00 00 00 00 00 00 00 2A
  can0  430   [8]  77 00 00 00 00 00 00 00
  can0  485   [8]  54 43 11 28 C1 1A 40 B5
  can0  171   [8]  36 B0 00 00 00 00 00 00
  can0  1CA   [8]  00 00 00 00 00 00 00 00
  can0  202   [8]  00 76 08 00 00 00 00 00
  can0  205   [8]  00 80 00 00 00 80 00 00
  can0  255   [8]  00 00 00 00 00 00 00 00
  can0  265   [8]  6A 00 00 00 00 00 14 81
  can0  280   [8]  00 00 00 00 00 00 00 00
  can0  321   [8]  00 48 00 07 F4 87 F7 F3
  can0  390   [8]  00 00 00 00 00 00 00 00
  can0  617   [8]  00 00 00 00 00 00 04 04
  can0  630   [7]  18 02 00 00 00 E0 06
  can0  600   [5]  8C 00 00 00 00
  can0  06E   [7]  CD B2 7F AA 76 00 01
  can0  382   [8]  53 11 10 04 00 00 00 00
  can0  218   [8]  00 FF 80 00 00 00 0C 74
  can0  321   [8]  00 48 00 07 E5 87 F7 F3
  can0  171   [8]  36 B0 00 00 00 00 00 00
  can0  1CA   [8]  00 00 00 00 00 00 00 00
  can0  202   [8]  00 75 10 00 00 00 00 01
  can0  205   [8]  00 80 00 00 00 80 00 00
  can0  255   [8]  00 00 00 00 00 00 00 00
  can0  265   [8]  69 00 00 00 00 00 14 82
  can0  280   [8]  00 00 00 00 00 00 00 00
  can0  06E   [7]  8B B3 7F AA 76 00 01
  can0  208   [8]  00 00 00 00 00 00 00 00
  can0  218   [8]  00 FF 80 00 00 00 0D 73
  can0  258   [8]  00 00 00 00 00 00 00 00
  can0  321   [8]  00 48 00 07 D6 87 F7 F3
  can0  171   [8]  36 B0 00 00 00 00 00 00
  can0  1CA   [8]  00 00 00 00 00 00 00 00
  can0  202   [8]  00 7F 18 00 00 00 00 01
  can0  205   [8]  00 80 00 00 00 80 00 00
  can0  255   [8]  00 00 00 00 00 00 00 00
  can0  265   [8]  68 00 00 00 00 00 14 83
  can0  275   [1]  01
  can0  280   [8]  00 00 00 00 00 00 00 00
  can0  400   [3]  A0 06 30
  can0  411   [3]  52 06 00
  can0  500   [7]  41 A0 00 2C 01 00 5A
  can0  510   [5]  5E 73 6C 06 47
  can0  620   [6]  C5 06 47 44 76 11
  can0  00A   [8]  36 09 00 00 00 00 00 00
  can0  06E   [7]  44 B4 7F AA 76 00 01
  can0  218   [8]  00 FF 80 00 00 00 0E 72
  can0  321   [8]  00 48 00 07 C7 87 F7 F3
  can0  171   [8]  36 B0 00 00 00 00 00 00
  can0  1CA   [8]  00 00 00 00 00 00 00 00
  can0  202   [8]  00 49 20 00 00 00 00 01
  can0  205   [8]  00 80 00 00 00 80 00 00
  can0  255   [8]  00 00 00 00 00 00 00 00
  can0  265   [8]  67 00 00 00 00 00 14 84
  can0  280   [8]  00 00 00 00 00 00 00 00
  can0  06E   [7]  02 B5 7F AA 76 00 01
  can0  208   [8]  00 00 00 00 00 00 00 00
  can0  218   [8]  00 FF 80 00 00 00 0F 71
  can0  258   [8]  00 00 00 00 00 00 00 00
  can0  00A   [8]  D1 0A 00 00 00 00 00 00
  can0  171   [8]  36 B0 00 00 00 00 00 00
  can0  1CA   [8]  00 00 00 00 00 00 00 00
  can0  202   [8]  00 43 28 00 00 00 00 01
  can0  205   [8]  00 80 00 00 00 80 00 00
  can0  255   [8]  00 00 00 00 00 00 00 00
  can0  265   [8]  66 00 00 00 00 00 14 85
  can0  280   [8]  00 00 00 00 00 00 00 00
  can0  321   [8]  00 48 00 07 38 87 F7 F3
  can0  06E   [7]  72 B6 7F A9 76 00 01
  can0  218   [8]  00 FF 80 00 00 00 00 80
  can0  321   [8]  00 48 00 07 29 87 F7 F3
  can0  171   [8]  36 B0 00 00 00 00 00 00
  can0  1CA   [8]  00 00 00 00 00 00 00 00
  can0  202   [8]  00 5D 30 00 00 00 00 01
  can0  205   [8]  00 80 00 00 00 80 00 00
  can0  255   [8]  00 00 00 00 00 00 00 00
  can0  265   [8]  65 00 00 00 00 00 14 86
  can0  280   [8]  00 00 00 00 00 00 00 00
  can0  06E   [7]  34 B7 7F A9 76 00 01
  can0  00A   [8]  8C 0B 00 00 00 00 00 00
  can0  208   [8]  00 00 00 00 00 00 00 00
  can0  218   [8]  00 FF 80 00 00 00 01 7F
  can0  258   [8]  00 00 00 00 00 00 00 00
  can0  321   [8]  00 48 00 07 1A 87 F7 F3
  can0  171   [8]  36 B0 00 00 00 00 00 00
  can0  1CA   [8]  00 00 00 00 00 00 00 00
  can0  202   [8]  00 57 38 00 00 00 00 01
  can0  205   [8]  00 80 00 00 00 80 00 00
  can0  255   [8]  00 00 00 00 00 00 00 00
  can0  265   [8]  64 00 00 00 00 00 14 87
  can0  280   [8]  00 00 00 00 00 00 00 00
  can0  06E   [7]  F1 B8 7F A9 76 00 01
  can0  218   [8]  00 FF 80 00 00 00 02 7E
  can0  321   [8]  00 48 00 07 0B 87 F7 F3
  can0  171   [8]  36 B0 00 00 00 00 00 00
  can0  1CA   [8]  00 00 00 00 00 00 00 00
  can0  202   [8]  00 31 40 00 00 00 00 01
  can0  205   [8]  00 80 00 00 00 80 00 00
  can0  255   [8]  00 00 00 00 00 00 00 00
  can0  265   [8]  63 00 00 00 00 00 14 88
  can0  280   [8]  00 00 00 00 00 00 00 00
  can0  06E   [7]  B7 B9 7F A9 76 00 01
  can0  208   [8]  00 00 00 00 00 00 00 00
  can0  218   [8]  00 FF 80 00 00 00 03 7D
  can0  258   [8]  00 00 00 00 00 00 00 00
  can0  321   [8]  00 46 FF 07 9C 87 F7 F3
  can0  171   [8]  36 B0 00 00 00 00 00 00
  can0  1CA   [8]  00 00 00 00 00 00 00 00
  can0  202   [8]  00 3B 48 00 00 00 00 01
  can0  205   [8]  00 80 00 00 00 80 00 00
  can0  255   [8]  00 00 00 00 00 00 00 00
  can0  265   [8]  62 00 00 00 00 00 14 89
  can0  280   [8]  00 00 00 00 00 00 00 00
  can0  00A   [8]  02 0C 00 00 00 00 00 00
  can0  06E   [7]  7D BA 7F A9 76 00 01
  can0  218   [8]  00 FF 80 00 00 00 04 7C
  can0  202   [8]  00 25 50 00 00 00 00 01
  can0  171   [8]  36 B0 00 00 00 00 00 00
  can0  1CA   [8]  00 00 00 00 00 00 00 00
  can0  205   [8]  00 80 00 00 00 80 00 00
  can0  255   [8]  00 00 00 00 00 00 00 00
  can0  265   [8]  61 00 00 00 00 00 14 8A
  can0  280   [8]  00 00 00 00 00 00 00 00
  can0  321   [8]  00 46 00 07 8D 87 F7 F3
  can0  06E   [7]  3B BB 7F A9 76 00 01
  can0  618   [8]  00 00 00 44 8C 00 05 CD
  can0  208   [8]  00 00 00 00 00 00 00 00
  can0  00A   [8]  5F 0D 00 00 00 00 00 00
  can0  185   [8]  5A 64 3F FD 7F AA 51 78
  can0  218   [8]  00 FF 80 00 00 00 05 7B
  can0  258   [8]  00 00 00 00 00 00 00 00
  can0  285   [8]  01 3C 00 00 00 00 00 50
  can0  375   [8]  19 86 0C 64 41 40 A6 FF
  can0  385   [8]  00 00 00 00 00 00 00 2A
  can0  430   [8]  77 00 00 00 00 00 00 00
  can0  485   [8]  54 43 11 29 C1 1A 50 A4
  can0  171   [8]  36 B0 00 00 00 00 00 00
  can0  1CA   [8]  00 00 00 00 00 00 00 00
  can0  202   [8]  00 2F 58 00 00 00 00 01
  can0  205   [8]  00 80 00 00 00 80 00 00
  can0  255   [8]  00 00 00 00 00 00 00 00
  can0  265   [8]  60 00 00 00 00 00 14 8B
  can0  280   [8]  00 00 00 00 00 00 00 00
  can0  321   [8]  00 46 00 07 BE 87 F7 F3
  can0  390   [8]  00 00 00 00 00 00 00 00
  can0  617   [8]  00 00 00 00 00 00 05 05
  can0  630   [7]  5E 03 00 00 00 E0 06
  can0  600   [5]  8C 00 00 00 00
  can0  420   [8]  00 6E 00 00 00 00 00 00
  can0  06E   [7]  F4 BC 7F A9 76 00 01
  can0  382   [8]  53 12 10 04 10 05 00 00
  can0  218   [8]  00 FF 80 00 00 00 06 7A
  can0  600   [5]  8C 00 00 00 00
  can0  601   [8]  73 03 00 00 CF 0F 00 69
  can0  621   [6]  6E 4B 86 62 00 1C
  can0  202   [8]  00 19 60 00 00 00 00 01
  can0  171   [8]  36 B0 00 00 00 00 00 00
  can0  1CA   [8]  00 00 00 00 00 00 00 00
  can0  205   [8]  00 80 00 00 00 80 00 00
  can0  255   [8]  00 00 00 00 00 00 00 00
  can0  265   [8]  5F 00 00 00 00 00 14 8C
  can0  280   [8]  00 00 00 00 00 00 00 00
  can0  321   [8]  00 46 00 07 AF 87 F7 F3
  can0  06E   [7]  B2 BD 7F A9 76 00 01
  can0  208   [8]  00 00 00 00 00 00 00 00
  can0  218   [8]  00 FF 80 00 00 00 07 79
  can0  258   [8]  00 00 00 00 00 00 00 00
  can0  202   [8]  00 13 68 00 00 00 00 01
  can0  171   [8]  36 B0 00 00 00 00 00 00
  can0  1CA   [8]  00 00 00 00 00 00 00 00
  can0  205   [8]  00 80 00 00 00 80 00 00
  can0  255   [8]  00 00 00 00 00 00 00 00
  can0  265   [8]  5E 00 00 00 00 00 14 8D
  can0  275   [1]  01
  can0  280   [8]  00 00 00 00 00 00 00 00
  can0  321   [8]  00 46 00 07 50 87 F7 F3
  can0  400   [3]  EC 07 30
  can0  411   [3]  1E 07 00
  can0  500   [7]  41 A0 00 2C 01 00 5A
  can0  510   [5]  5E 73 6C 07 46
  can0  620   [6]  AF 07 47 44 76 11
  can0  00A   [8]  B8 0E 00 00 00 00 00 00
  can0  06E   [7]  78 BE 7F A9 76 00 01
  can0  218   [8]  00 FF 80 00 00 00 08 78
  can0  202   [8]  00 0D 70 00 00 00 00 01
  can0  171   [8]  36 B0 00 00 00 00 00 00
  can0  1CA   [8]  00 00 00 00 00 00 00 00
  can0  205   [8]  00 80 00 00 00 80 00 00
  can0  255   [8]  00 00 00 00 00 00 00 00
  can0  265   [8]  5D 00 00 00 00 00 14 8E
  can0  280   [8]  00 00 00 00 00 00 00 00
  can0  321   [8]  00 46 00 07 41 87 F7 F3
  can0  06E   [7]  3E BF 7F A9 76 00 01
  can0  208   [8]  00 00 00 00 00 00 00 00
  can0  218   [8]  00 FF 80 00 00 00 09 77
  can0  258   [8]  00 00 00 00 00 00 00 00
  can0  00A   [8]  E5 0F 00 00 00 00 00 00
  can0  171   [8]  36 B0 00 00 00 00 00 00
  can0  1CA   [8]  00 00 00 00 00 00 00 00
  can0  202   [8]  00 07 78 00 00 00 00 01
  can0  205   [8]  00 80 00 00 00 80 00 00
  can0  255   [8]  00 00 00 00 00 00 00 00
  can0  265   [8]  5C 00 00 00 00 00 14 8F
  can0  280   [8]  00 00 00 00 00 00 00 00
  can0  321   [8]  00 46 00 07 72 87 F7 F3
  can0  06E   [7]  41 B0 7F AA 76 00 01
  can0  218   [8]  00 FF 80 00 00 00 0A 76
  can0  202   [8]  00 61 00 00 00 00 00 01
  can0  171   [8]  36 B0 00 00 00 00 00 00
  can0  1CA   [8]  00 00 00 00 00 00 00 00
  can0  205   [8]  00 80 00 00 00 80 00 00
  can0  255   [8]  00 00 00 00 00 00 00 00
  can0  265   [8]  6B 00 00 00 00 00 14 80
  can0  280   [8]  00 00 00 00 00 00 00 00
  can0  321   [8]  00 46 00 07 63 87 F7 F3
  can0  06E   [7]  07 B1 7F AA 76 00 01
  can0  00A   [8]  B9 00 00 00 00 00 00 00
  can0  208   [8]  00 00 00 00 00 00 00 00
  can0  218   [8]  00 FF 80 00 00 00 0B 75
  can0  258   [8]  00 00 00 00 00 00 00 00
  can0  202   [8]  00 6B 08 00 00 00 00 01
  can0  171   [8]  36 B0 00 00 00 00 00 00
  can0  1CA   [8]  00 00 00 00 00 00 00 00
  can0  205   [8]  00 80 00 00 00 80 00 00
  can0  255   [8]  00 00 00 00 00 00 00 00
  can0  265   [8]  6A 00 00 00 00 00 14 81
  can0  280   [8]  00 00 00 00 00 00 00 00
  can0  321   [8]  00 46 00 07 14 87 F7 F3
  can0  06E   [7]  CD B2 7F AA 76 00 01
  can0  218   [8]  00 FF 80 00 00 00 0C 74
  can0  202   [8]  00 75 10 00 00 00 00 01
  can0  171   [8]  36 B0 00 00 00 00 00 00
  can0  1CA   [8]  00 00 00 00 00 00 00 00
  can0  205   [8]  00 80 00 00 00 80 00 00
  can0  255   [8]  00 00 00 00 00 00 00 00
  can0  265   [8]  69 00 00 00 00 00 14 82
  can0  280   [8]  00 00 00 00 00 00 00 00
  can0  321   [8]  00 46 00 07 05 87 F7 F3
  can0  06E   [7]  8B B3 7F AA 76 00 01
  can0  208   [8]  00 00 00 00 00 00 00 00
  can0  218   [8]  00 FF 80 00 00 00 0D 73
  can0  258   [8]  00 00 00 00 00 00 00 00
  can0  202   [8]  00 7F 18 00 00 00 00 01
  can0  171   [8]  36 B0 00 00 00 00 00 00
  can0  1CA   [8]  00 00 00 00 00 00 00 00
  can0  205   [8]  00 80 00 00 00 80 00 00
  can0  255   [8]  00 00 00 00 00 00 00 00
  can0  265   [8]  68 00 00 00 00 00 14 83
  can0  280   [8]  00 00 00 00 00 00 00 00
  can0  321   [8]  00 48 01 07 C6 87 F7 F3
  can0  00A   [8]  E4 01 00 00 00 00 00 00
  can0  06E   [7]  44 B4 7F AA 76 00 01
  can0  218   [8]  00 FF 80 00 00 00 0E 72
  can0  202   [8]  00 49 20 00 00 00 00 01
  can0  171   [8]  36 B0 00 00 00 00 00 00
  can0  1CA   [8]  00 00 00 00 00 00 00 00
  can0  205   [8]  00 80 00 00 00 80 00 00
  can0  255   [8]  00 00 00 00 00 00 00 00
  can0  265   [8]  67 00 00 00 00 00 14 84
  can0  280   [8]  00 00 00 00 00 00 00 00
  can0  321   [8]  00 48 00 07 C7 87 F7 F3
  can0  06E   [7]  02 B5 7F AA 76 00 01
  can0  618   [8]  00 00 00 44 8C 00 06 CE
  can0  208   [8]  00 00 00 00 00 00 00 00
  can0  00A   [8]  03 02 00 00 00 00 00 00
  can0  185   [8]  5A 64 3F FD 7F AA 61 48
  can0  218   [8]  00 FF 80 00 00 00 0F 71
  can0  258   [8]  00 00 00 00 00 00 00 00
  can0  285   [8]  01 3C 00 00 00 00 00 60
  can0  375   [8]  44 87 0C 64 41 40 A6 FF
  can0  385   [8]  00 00 00 00 00 00 00 2A
  can0  430   [8]  77 00 00 00 00 00 00 00
  can0  485   [8]  54 43 11 28 C1 1A 60 95
  can0  171   [8]  36 B0 00 00 00 00 00 00
  can0  1CA   [8]  00 00 00 00 00 00 00 00
  can0  202   [8]  00 43 28 00 00 00 00 01
  can0  205   [8]  00 80 00 00 00 80 00 00
  can0  255   [8]  00 00 00 00 00 00 00 00
  can0  265   [8]  66 00 00 00 00 00 14 85
  can0  280   [8]  00 00 00 00 00 00 00 00
  can0  321   [8]  00 48 00 07 38 87 F7 F3
  can0  390   [8]  00 00 00 00 00 00 00 00
  can0  617   [8]  00 00 00 00 00 00 06 06
  can0  630   [7]  91 04 00 00 00 E0 06
  can0  600   [5]  8C 00 00 00 00
  can0  06E   [7]  C8 B6 7F AA 76 00 01
  can0  382   [8]  53 13 00 00 00 00 00 00
  can0  218   [8]  00 FF 80 00 00 00 00 80
  can0  202   [8]  00 5D 30 00 00 00 00 01
  can0  171   [8]  36 AF 00 00 00 00 00 00
  can0  1CA   [8]  00 00 00 00 00 00 00 00
  can0  205   [8]  00 80 00 00 00 80 00 00
  can0  255   [8]  00 00 00 00 00 00 00 00
  can0  265   [8]  65 00 00 00 00 00 14 86
  can0  280   [8]  00 00 00 00 00 00 00 00
  can0  321   [8]  00 48 00 07 29 87 F7 F3
  can0  06E   [7]  8E B7 7F AA 76 00 01
  can0  208   [8]  00 00 00 00 00 00 00 00
  can0  218   [8]  00 FF 80 00 00 00 01 7F
  can0  258   [8]  00 00 00 00 00 00 00 00
  can0  202   [8]  00 57 38 00 00 00 00 01
  can0  171   [8]  36 B0 00 00 00 00 00 00
  can0  1CA   [8]  00 00 00 00 00 00 00 00
  can0  205   [8]  00 80 00 00 00 80 00 00
  can0  255   [8]  00 00 00 00 00 00 00 00
  can0  265   [8]  64 00 00 00 00 00 14 87
  can0  275   [1]  01
  can0  280   [8]  00 00 00 00 00 00 00 00
  can0  321   [8]  00 48 00 07 1A 87 F7 F3
  can0  400   [3]  4F 08 30
  can0  411   [3]  BD 08 00
  can0  500   [7]  41 A0 00 2C 01 00 5A
  can0  510   [5]  5E 73 6C 08 49
  can0  620   [6]  D3 08 47 44 76 11
  can0  00A   [8]  5E 03 00 00 00 00 00 00
  can0  06E   [7]  4B B8 7F AA 76 00 01
  can0  218   [8]  00 FF 80 00 00 00 02 7E
  can0  202   [8]  00 31 40 00 00 00 00 01
  can0  171   [8]  36 B0 00 00 00 00 00 00
  can0  1CA   [8]  00 00 00 00 00 00 00 00
  can0  205   [8]  00 80 00 00 00 80 00 00
  can0  255   [8]  00 00 00 00 00 00 00 00
  can0  265   [8]  63 00 00 00 00 00 14 88
  can0  280   [8]  00 00 00 00 00 00 00 00
  can0  321   [8]  00 48 00 07 0B 87 F7 F3
  can0  06E   [7]  0D B9 7F AA 76 00 01
  can0  208   [8]  00 00 00 00 00 00 00 00
  can0  218   [8]  00 FF 80 00 00 00 03 7D
  can0  258   [8]  00 00 00 00 00 00 00 00
  can0  00A   [8]  D0 04 00 00 00 00 00 00
  can0  171   [8]  36 B0 00 00 00 00 00 00
  can0  1CA   [8]  00 00 00 00 00 00 00 00
  can0  202   [8]  00 3B 48 00 00 00 00 01
  can0  205   [8]  00 80 00 00 00 80 00 00
  can0  255   [8]  00 00 00 00 00 00 00 00
  can0  265   [8]  62 00 00 00 00 00 14 89
  can0  280   [8]  00 00 00 00 00 00 00 00
  can0  321   [8]  00 48 00 07 7C 87 F7 F3
  can0  06E   [7]  C7 BA 7F AA 76 00 01
  can0  218   [8]  00 FF 80 00 00 00 04 7C
  can0  202   [8]  00 25 50 00 00 00 00 01
  can0  171   [8]  36 B0 00 00 00 00 00 00
  can0  1CA   [8]  00 00 00 00 00 00 00 00
  can0  205   [8]  00 80 00 00 00 80 00 00
  can0  255   [8]  00 00 00 00 00 00 00 00
  can0  265   [8]  61 00 00 00 00 00 14 8A
  can0  280   [8]  00 00 00 00 00 00 00 00
  can0  321   [8]  00 48 00 07 6D 87 F7 F3
  can0  06E   [7]  81 BB 7F AA 76 00 01
  can0  00A   [8]  8D 05 00 00 00 00 00 00
  can0  208   [8]  00 00 00 00 00 00 00 00
  can0  218   [8]  00 FF 80 00 00 00 05 7B
  can0  258   [8]  00 00 00 00 00 00 00 00
  can0  202   [8]  00 2F 58 00 00 00 00 01
  can0  171   [8]  36 B0 00 00 00 00 00 00
  can0  1CA   [8]  00 00 00 00 00 00 00 00
  can0  205   [8]  00 80 00 00 00 80 00 00
  can0  255   [8]  00 00 00 00 00 00 00 00
  can0  265   [8]  60 00 00 00 00 00 14 8B
  can0  280   [8]  00 00 00 00 00 00 00 00
  can0  321   [8]  00 48 00 07 5E 87 F7 F3
  can0  06E   [7]  4E BC 7F AA 76 00 01
  can0  218   [8]  00 FF 80 00 00 00 06 7A
  can0  202   [8]  00 19 60 00 00 00 00 01
  can0  171   [8]  36 B0 00 00 00 00 00 00
  can0  1CA   [8]  00 00 00 00 00 00 00 00
  can0  205   [8]  00 80 00 00 00 80 00 00
  can0  255   [8]  00 00 00 00 00 00 00 00
  can0  265   [8]  5F 00 00 00 00 00 14 8C
  can0  280   [8]  00 00 00 00 00 00 00 00
  can0  321   [8]  00 48 00 07 4F 87 F7 F3
  can0  06E   [7]  08 BD 7F AA 76 00 01
  can0  208   [8]  00 00 00 00 00 00 00 00
  can0  218   [8]  00 FF 80 00 00 00 07 79
  can0  258   [8]  00 00 00 00 00 00 00 00
  can0  202   [8]  00 13 68 00 00 00 00 01
  can0  171   [8]  36 B0 00 00 00 00 00 00
  can0  1CA   [8]  00 00 00 00 00 00 00 00
  can0  205   [8]  00 80 00 00 00 80 00 00
  can0  255   [8]  00 00 00 00 00 00 00 00
  can0  265   [8]  5E 00 00 00 00 00 14 8D
  can0  280   [8]  00 00 00 00 00 00 00 00
  can0  321   [8]  00 48 00 07 B0 87 F7 F3
  can0  00A   [8]  6A 06 00 00 00 00 00 00
  can0  06E   [7]  C2 BE 7F AA 76 00 01
  can0  218   [8]  00 FF 80 00 00 00 08 78
  can0  202   [8]  00 0D 70 00 00 00 00 01
  can0  171   [8]  36 B0 00 00 00 00 00 00
  can0  1CA   [8]  00 00 00 00 00 00 00 00
  can0  205   [8]  00 80 00 00 00 80 00 00
  can0  255   [8]  00 00 00 00 00 00 00 00
  can0  265   [8]  5D 00 00 00 00 00 14 8E
  can0  280   [8]  00 00 00 00 00 00 00 00
  can0  321   [8]  00 48 00 07 A1 87 F7 F3
  can0  06E   [7]  84 BF 7F AA 76 00 01
  can0  618   [8]  00 00 00 44 8C 00 07 CF
  can0  208   [8]  00 00 00 00 00 00 00 00
  can0  00A   [8]  37 07 00 00 00 00 00 00
  can0  185   [8]  5A 64 3F FD 7F AA 71 58
  can0  218   [8]  00 FF 80 00 00 00 09 77
  can0  258   [8]  00 00 00 00 00 00 00 00
  can0  285   [8]  01 3C 00 00 00 00 00 70
  can0  375   [8]  18 88 0C 64 41 40 A6 FF
  can0  385   [8]  00 00 00 00 00 00 00 2A
  can0  430   [8]  77 00 00 00 00 00 00 00
  can0  485   [8]  54 43 11 28 C1 1A 70 85
  can0  171   [8]  36 B0 00 00 00 00 00 00
  can0  1CA   [8]  00 00 00 00 00 00 00 00
  can0  202   [8]  00 07 78 00 00 00 00 01
  can0  205   [8]  00 80 00 00 00 80 00 00
  can0  255   [8]  00 00 00 00 00 00 00 00
  can0  265   [8]  5C 00 00 00 00 00 14 8F
  can0  280   [8]  00 00 00 00 00 00 00 00
  can0  321   [8]  00 46 FF 07 72 87 F7 F3
  can0  390   [8]  00 00 00 00 00 00 00 00
  can0  617   [8]  00 00 00 00 00 00 07 07
  can0  630   [7]  D7 05 00 00 00 E0 06
  can0  600   [5]  8C 00 00 00 00
  can0  06E   [7]  41 B0 7F AA 76 00 01
  can0  382   [8]  54 00 10 05 10 05 10 06
  can0  218   [8]  00 FF 80 00 00 00 0A 76
  can0  202   [8]  00 61 00 00 00 00 00 01
  can0  171   [8]  36 B0 00 00 00 00 00 00
  can0  1CA   [8]  00 00 00 00 00 00 00 00
  can0  205   [8]  00 80 00 00 00 80 00 00
  can0  255   [8]  00 00 00 00 00 00 00 00
  can0  265   [8]  6B 00 00 00 00 00 14 80
  can0  280   [8]  00 00 00 00 00 00 00 00
  can0  321   [8]  00 45 FF 07 53 87 F7 F3
  can0  06E   [7]  07 B1 7F AA 76 00 01
  can0  208   [8]  00 00 00 00 00 00 00 00
  can0  218   [8]  00 FF 80 00 00 00 0B 75
  can0  258   [8]  00 00 00 00 00 00 00 00
  can0  202   [8]  00 6B 08 00 00 00 00 01
  can0  171   [8]  36 B0 00 00 00 00 00 00
  can0  1CA   [8]  00 00 00 00 00 00 00 00
  can0  205   [8]  00 80 00 00 00 80 00 00
  can0  255   [8]  00 00 00 00 00 00 00 00
  can0  265   [8]  6A 00 00 00 00 00 14 81
  can0  275   [1]  01
  can0  280   [8]  00 00 00 00 00 00 00 00
  can0  321   [8]  00 45 00 07 24 87 F7 F3
  can0  400   [3]  03 09 30
  can0  411   [3]  F1 09 00
  can0  500   [7]  41 A0 00 2C 01 00 5A
  can0  510   [5]  5E 73 6C 09 48
  can0  620   [6]  B9 09 47 44 76 11
  can0  00A   [8]  6B 08 00 00 00 00 00 00
  can0  06E   [7]  CD B2 7F AA 76 00 01
  can0  218   [8]  00 FF 80 00 00 00 0C 74
  can0  202   [8]  00 75 10 00 00 00 00 01
  can0  171   [8]  36 B0 00 00 00 00 00 00
  can0  1CA   [8]  00 00 00 00 00 00 00 00
  can0  205   [8]  00 80 00 00 00 80 00 00
  can0  255   [8]  00 00 00 00 00 00 00 00
  can0  265   [8]  69 00 00 00 00 00 14 82
  can0  280   [8]  00 00 00 00 00 00 00 00
  can0  321   [8]  00 45 00 07 35 87 F7 F3
  can0  06E   [7]  8B B3 7F AA 76 00 01
  can0  208   [8]  00 00 00 00 00 00 00 00
  can0  218   [8]  00 FF 80 00 00 00 0D 73
  can0  258   [8]  00 00 00 00 00 00 00 00
  can0  00A   [8]  36 09 00 00 00 00 00 00
  can0  171   [8]  36 B0 00 00 00 00 00 00
  can0  1CA   [8]  00 00 00 00 00 00 00 00
  can0  202   [8]  00 7F 18 00 00 00 00 01
  can0  205   [8]  00 80 00 00 00 80 00 00
  can0  255   [8]  00 00 00 00 00 00 00 00
  can0  265   [8]  68 00 00 00 00 00 14 83
  can0  280   [8]  00 00 00 00 00 00 00 00
  can0  321   [8]  00 46 01 07 26 87 F7 F3
  can0  06E   [7]  44 B4 7F AA 76 00 01
  can0  218   [8]  00 FF 80 00 00 00 0E 72
  can0  202   [8]  00 49 20 00 00 00 00 01
  can0  171   [8]  36 AF 00 00 00 00 00 00
  can0  1CA   [8]  00 00 00 00 00 00 00 00
  can0  205   [8]  00 80 00 00 00 80 00 00
  can0  255   [8]  00 00 00 00 00 00 00 00
  can0  265   [8]  67 00 00 00 00 00 14 84
  can0  280   [8]  00 00 00 00 00 00 00 00
  can0  321   [8]  00 48 01 07 D7 87 F7 F3
  can0  06E   [7]  02 B5 7F AA 76 00 01
  can0  00A   [8]  D1 0A 00 00 00 00 00 00
  can0  208   [8]  00 00 00 00 00 00 00 00
  can0  218   [8]  00 FF 80 00 00 00 0F 71
  can0  258   [8]  00 00 00 00 00 00 00 00
  can0  202   [8]  00 43 28 00 00 00 00 01
  can0  171   [8]  36 B0 00 00 00 00 00 00
  can0  1CA   [8]  00 00 00 00 00 00 00 00
  can0  205   [8]  00 80 00 00 00 80 00 00
  can0  255   [8]  00 00 00 00 00 00 00 00
  can0  265   [8]  66 00 00 00 00 00 14 85
  can0  280   [8]  00 00 00 00 00 00 00 00
  can0  321   [8]  00 48 00 07 38 87 F7 F3
  can0  06E   [7]  C8 B6 7F AA 76 00 01
  can0  218   [8]  00 FF 80 00 00 00 00 80
  can0  202   [8]  00 5D 30 00 00 00 00 01
  can0  171   [8]  36 B0 00 00 00 00 00 00
  can0  1CA   [8]  00 00 00 00 00 00 00 00
  can0  205   [8]  00 80 00 00 00 80 00 00
  can0  255   [8]  00 00 00 00 00 00 00 00
  can0  265   [8]  65 00 00 00 00 00 14 86
  can0  280   [8]  00 00 00 00 00 00 00 00
  can0  321   [8]  00 48 00 07 29 87 F7 F3
  can0  06E   [7]  8E B7 7F AA 76 00 01
  can0  208   [8]  00 00 00 00 00 00 00 00
  can0  218   [8]  00 FF 80 00 00 00 01 7F
  can0  258   [8]  00 00 00 00 00 00 00 00
  can0  202   [8]  00 57 38 00 00 00 00 01
  can0  171   [8]  36 B0 00 00 00 00 00 00
  can0  1CA   [8]  00 00 00 00 00 00 00 00
  can0  205   [8]  00 80 00 00 00 80 00 00
  can0  255   [8]  00 00 00 00 00 00 00 00
  can0  265   [8]  64 00 00 00 00 00 14 87
  can0  280   [8]  00 00 00 00 00 00 00 00
  can0  321   [8]  00 48 00 07 1A 87 F7 F3
  can0  00A   [8]  8C 0B 00 00 00 00 00 00
  can0  06E   [7]  4B B8 7F AA 76 00 01
  can0  218   [8]  00 FF 80 00 00 00 02 7E
  can0  202   [8]  00 31 40 00 00 00 00 01
  can0  171   [8]  36 B0 00 00 00 00 00 00
  can0  1CA   [8]  00 00 00 00 00 00 00 00
  can0  205   [8]  00 80 00 00 00 80 00 00
  can0  255   [8]  00 00 00 00 00 00 00 00
  can0  265   [8]  63 00 00 00 00 00 14 88
  can0  280   [8]  00 00 00 00 00 00 00 00
  can0  321   [8]  00 48 00 07 0B 87 F7 F3
  can0  06E   [7]  0D B9 7F AA 76 00 01
  can0  618   [8]  00 00 00 44 8C 00 08 C0
  can0  208   [8]  00 00 00 00 00 00 00 00
  can0  00A   [8]  02 0C 00 00 00 00 00 00
  can0  185   [8]  5A 64 3F FD 7F AA 81 A8
  can0  218   [8]  00 FF 80 00 00 00 03 7D
  can0  258   [8]  00 00 00 00 00 00 00 00
  can0  285   [8]  01 3C 00 00 00 00 00 80
  can0  375   [8]  45 89 0C 64 41 40 A6 FF
  can0  385   [8]  00 00 00 00 00 00 00 2A
  can0  430   [8]  77 00 00 00 00 00 00 00
  can0  485   [8]  54 43 11 28 C1 1A 80 75
  can0  171   [8]  36 B0 00 00 00 00 00 00
  can0  1CA   [8]  00 00 00 00 00 00 00 00
  can0  202   [8]  00 3B 48 00 00 00 00 01
  can0  205   [8]  00 80 00 00 00 80 00 00
  can0  255   [8]  00 00 00 00 00 00 00 00
  can0  265   [8]  62 00 00 00 00 00 14 89
  can0  280   [8]  00 00 00 00 00 00 00 00
  can0  321   [8]  00 48 00 07 7C 87 F7 F3
  can0  390   [8]  00 00 00 00 00 00 00 00
  can0  617   [8]  00 00 00 00 00 00 08 08
  can0  630   [7]  1D 06 00 00 00 E0 06
  can0  600   [5]  8C 00 00 00 00
  can0  06E   [7]  C7 BA 7F AA 76 00 01
  can0  382   [8]  54 01 10 05 00 00 10 06
  can0  218   [8]  00 FF 80 00 00 00 04 7C
  can0  202   [8]  00 25 50 00 00 00 00 01
  can0  171   [8]  36 B0 00 00 00 00 00 00
  can0  1CA   [8]  00 00 00 00 00 00 00 00
  can0  205   [8]  00 80 00 00 00 80 00 00
  can0  255   [8]  00 00 00 00 00 00 00 00
  can0  265   [8]  61 00 00 00 00 00 14 8A
  can0  280   [8]  00 00 00 00 00 00 00 00
  can0  321   [8]  00 48 00 07 6D 87 F7 F3
  can0  06E   [7]  81 BB 7F AA 76 00 01
  can0  208   [8]  00 00 00 00 00 00 00 00
  can0  218   [8]  00 FF 80 00 00 00 05 7B
  can0  258   [8]  00 00 00 00 00 00 00 00
  can0  202   [8]  00 2F 58 00 00 00 00 01
  can0  171   [8]  36 B0 00 00 00 00 00 00
  can0  1CA   [8]  00 00 00 00 00 00 00 00
  can0  205   [8]  00 80 00 00 00 80 00 00
  can0  255   [8]  00 00 00 00 00 00 00 00
  can0  265   [8]  60 00 00 00 00 00 14 8B
  can0  275   [1]  01
  can0  280   [8]  00 00 00 00 00 00 00 00
  can0  321   [8]  00 48 00 07 5E 87 F7 F3
  can0  400   [3]  D7 0A 30
  can0  411   [3]  25 0A 00
  can0  500   [7]  41 A0 00 2C 01 00 5A
  can0  510   [5]  5E 73 6C 0A 4B
  can0  620   [6]  07 0A 47 44 76 11
  can0  00A   [8]  5F 0D 00 00 00 00 00 00
  can0  06E   [7]  4E BC 7F AA 76 00 01
  can0  218   [8]  00 FF 80 00 00 00 06 7A
  can0  202   [8]  00 19 60 00 00 00 00 01
  can0  171   [8]  36 AF 00 00 00 00 00 00
  can0  1CA   [8]  00 00 00 00 00 00 00 00
  can0  205   [8]  00 80 00 00 00 80 00 00
  can0  255   [8]  00 00 00 00 00 00 00 00
  can0  265   [8]  5F 00 00 00 00 00 14 8C
  can0  280   [8]  00 00 00 00 00 00 00 00
  can0  321   [8]  00 4A 03 07 5F 87 F7 F3
  can0  06E   [7]  08 BD 7F AA 76 00 01
  can0  208   [8]  00 00 00 00 00 00 00 00
  can0  218   [8]  00 FF 80 00 00 00 07 79
  can0  258   [8]  00 00 00 00 00 00 00 00
  can0  00A   [8]  B8 0E 00 00 00 00 00 00
  can0  171   [8]  36 B0 00 00 00 00 00 00
  can0  1CA   [8]  00 00 00 00 00 00 00 00
  can0  202   [8]  00 13 68 00 00 00 00 01
  can0  205   [8]  00 80 00 00 00 80 00 00
  can0  255   [8]  00 00 00 00 00 00 00 00
  can0  265   [8]  5E 00 00 00 00 00 14 8D
  can0  280   [8]  00 00 00 00 00 00 00 00
  can0  321   [8]  00 4B 01 07 90 87 F7 F3
  can0  06E   [7]  C2 BE 7F AA 76 00 01
  can0  218   [8]  00 FF 80 00 00 00 08 78
  can0  202   [8]  00 0D 70 00 00 00 00 01
  can0  171   [8]  36 B0 00 00 00 00 00 00
  can0  1CA   [8]  00 00 00 00 00 00 00 00
  can0  205   [8]  00 80 00 00 00 80 00 00
  can0  255   [8]  00 00 00 00 00 00 00 00
  can0  265   [8]  5D 00 00 00 00 00 14 8E
  can0  280   [8]  00 00 00 00 00 00 00 00
  can0  321   [8]  00 4F 04 07 91 87 F7 F3
  can0  06E   [7]  84 BF 7F AA 76 00 01
  can0  00A   [8]  E5 0F 00 00 00 00 00 00
  can0  208   [8]  00 00 00 00 00 00 00 00
  can0  218   [8]  00 FF 80 00 00 00 09 77
  can0  258   [8]  00 00 00 00 00 00 00 00
  can0  202   [8]  00 07 78 00 00 00 00 01
  can0  171   [8]  36 B0 00 00 00 00 00 00
  can0  1CA   [8]  00 00 00 00 00 00 00 00
  can0  205   [8]  00 80 00 00 00 80 00 00
