  can0  208   [8]  00 00 00 00 00 00 00 00
  can0  218   [8]  00 FF 80 00 00 00 27 59
  can0  258   [8]  02 94 00 00 00 00 00 00
  can0  06E   [7]  20 A7 7F A9 76 00 01
  can0  618   [8]  00 00 00 44 8C 00 0B C3
  can0  430   [8]  77 00 00 00 00 00 00 00
  can0  00A   [8]  8C 0B 00 00 00 00 00 00
  can0  185   [8]  5A 64 3F FB 7F AA B1 9E
  can0  285   [8]  01 3C 00 00 00 00 00 B0
  can0  375   [8]  71 8C 0C 64 41 40 A6 FF
  can0  385   [8]  00 00 00 00 00 00 00 2A
  can0  485   [8]  54 43 11 28 C1 1A B0 45
  can0  617   [8]  00 00 00 00 00 00 0B 0B
  can0  202   [8]  00 57 38 00 00 00 00 01
  can0  171   [8]  36 B0 00 00 00 00 00 00
  can0  1CA   [8]  00 00 00 00 00 00 00 00
  can0  205   [8]  00 80 00 00 00 80 00 00
  can0  255   [8]  00 00 00 00 00 00 00 00
  can0  265   [8]  64 00 00 00 00 00 14 87
  can0  280   [8]  00 00 A0 0F 00 00 00 00
  can0  321   [8]  00 29 00 07 E2 87 F7 F3
  can0  630   [7]  D8 09 00 00 00 E0 06
  can0  600   [5]  00 00 00 00 00
  can0  218   [8]  00 FF 80 00 00 00 28 58
  can0  06E   [7]  E5 A8 7F A9 76 00 01
  can0  382   [8]  51 00 10 06 10 05 10 05
  can0  202   [8]  00 31 40 00 00 00 00 01
  can0  171   [8]  36 B0 00 00 00 00 00 00
  can0  1CA   [8]  00 00 00 00 00 00 00 00
  can0  205   [8]  00 80 00 00 00 80 00 00
  can0  255   [8]  00 00 00 00 00 00 00 00
  can0  265   [8]  63 00 00 00 00 00 14 88
  can0  280   [8]  00 00 A0 0F 00 00 00 00
  can0  321   [8]  00 29 00 07 F3 87 F7 F3
  can0  208   [8]  00 00 00 00 00 00 00 00
  can0  218   [8]  00 FF 80 00 00 00 29 57
  can0  258   [8]  02 94 00 00 00 00 00 00
  can0  06E   [7]  A3 A9 7F A9 76 00 01
  can0  202   [8]  00 3B 48 00 00 00 00 01
  can0  171   [8]  36 B0 00 00 00 00 00 00
  can0  1CA   [8]  00 00 00 00 00 00 00 00
  can0  205   [8]  00 80 00 00 00 80 00 00
  can0  255   [8]  00 00 00 00 00 00 00 00
  can0  265   [8]  62 00 00 00 00 00 14 89
  can0  275   [1]  01
  can0  280   [8]  00 00 A0 0F 00 00 00 00
  can0  400   [3]  2E 0D 30
  can0  321   [8]  00 29 00 07 84 87 F7 F3
  can0  411   [3]  DC 0D 00
  can0  4F0   [1]  00
  can0  500   [7]  54 A0 00 2C 01 00 5A
  can0  505   [2]  01 05
  can0  510   [5]  5D 73 6D 0D 4E
  can0  620   [6]  0F 0D 47 46 76 11
  can0  218   [8]  00 FF 80 00 00 00 2A 56
  can0  00A   [8]  02 0C 00 00 00 00 00 00
  can0  06E   [7]  69 AA 7F A9 76 00 01
  can0  202   [8]  00 25 50 00 00 00 00 01
  can0  171   [8]  36 B0 00 00 00 00 00 00
  can0  1CA   [8]  00 00 00 00 00 00 00 00
  can0  205   [8]  00 80 00 00 00 80 00 00
  can0  255   [8]  00 00 00 00 00 00 00 00
  can0  265   [8]  61 00 00 00 00 00 14 8A
  can0  280   [8]  00 00 A0 0F 00 00 00 00
  can0  321   [8]  00 2A 01 07 B5 87 F7 F3
  can0  5F3   [1]  00
  can0  208   [8]  00 00 00 00 00 00 00 00
  can0  218   [8]  00 FF 80 00 00 00 2B 55
  can0  258   [8]  02 94 00 00 00 00 00 00
  can0  06E   [7]  2F AB 7F A9 76 00 01
  can0  00A   [8]  5F 0D 00 00 00 00 00 00
  can0  202   [8]  00 2F 58 00 00 00 00 01
  can0  171   [8]  36 B0 00 00 00 00 00 00
  can0  1CA   [8]  00 00 00 00 00 00 00 00
  can0  205   [8]  00 80 00 00 00 80 00 00
  can0  255   [8]  00 00 00 00 00 00 00 00
  can0  265   [8]  60 00 00 00 00 00 14 8B
  can0  280   [8]  00 00 A0 0F 00 00 00 00
  can0  321   [8]  00 2B 01 07 96 87 F7 F3
  can0  218   [8]  00 FF 80 00 00 00 2C 54
  can0  06E   [7]  E0 AC 7F A9 76 00 01
  can0  202   [8]  00 19 60 00 00 00 00 01
  can0  171   [8]  36 B0 00 00 00 00 00 00
  can0  1CA   [8]  00 00 00 00 00 00 00 00
  can0  205   [8]  00 80 00 00 00 80 00 00
  can0  255   [8]  00 00 00 00 00 00 00 00
  can0  265   [8]  5F 00 00 00 00 00 14 8C
  can0  280   [8]  00 00 A0 0F 00 00 00 00
  can0  321   [8]  00 2B 00 07 97 87 F7 F3
  can0  208   [8]  00 00 00 00 00 00 00 00
  can0  218   [8]  00 FF 80 00 00 00 2D 53
  can0  258   [8]  02 94 00 00 00 00 00 00
  can0  06E   [7]  A6 AD 7F A9 76 00 01
  can0  00A   [8]  B8 0E 00 00 00 00 00 00
  can0  202   [8]  00 13 68 00 00 00 00 01
  can0  171   [8]  36 B0 00 00 00 00 00 00
  can0  1CA   [8]  00 00 00 00 00 00 00 00
  can0  205   [8]  00 80 00 00 00 80 00 00
  can0  255   [8]  00 00 00 00 00 00 00 00
  can0  265   [8]  5E 00 00 00 00 00 14 8D
  can0  280   [8]  00 00 A0 0F 00 00 00 00
  can0  321   [8]  00 2C 01 07 08 87 F7 F3
  can0  218   [8]  00 FF 80 00 00 00 2E 52
  can0  06E   [7]  6C AE 7F A9 76 00 01
  can0  202   [8]  00 0D 70 00 00 00 00 01
  can0  171   [8]  36 AF 00 00 00 00 00 00
  can0  1CA   [8]  00 00 00 00 00 00 00 00
  can0  205   [8]  00 80 00 00 00 80 00 00
  can0  255   [8]  00 00 00 00 00 00 00 00
  can0  265   [8]  5D 00 00 00 00 00 14 8E
  can0  280   [8]  00 00 A0 0F 00 00 00 00
  can0  321   [8]  00 2C 00 07 09 87 F7 F3
  can0  208   [8]  00 00 00 00 00 00 00 00
  can0  218   [8]  00 FF 80 00 00 00 2F 51
  can0  258   [8]  02 94 00 00 00 00 00 00
  can0  06E   [7]  2A AF 7F A9 76 00 01
  can0  202   [8]  00 07 78 00 00 00 00 01
  can0  171   [8]  36 B0 00 00 00 00 00 00
  can0  1CA   [8]  00 00 00 00 00 00 00 00
  can0  205   [8]  00 80 00 00 00 80 00 00
  can0  255   [8]  00 00 00 00 00 00 00 00
  can0  265   [8]  5C 00 00 00 00 00 14 8F
  can0  280   [8]  00 00 A0 0F 00 00 00 00
  can0  390   [8]  00 01 00 00 00 00 00 00
  can0  321   [8]  00 2D 01 07 3A 87 F7 F3
  can0  00A   [8]  E5 0F 00 00 00 00 00 00
  can0  218   [8]  00 FF 80 00 00 00 20 60
  can0  06E   [7]  EF A0 7F A9 76 00 01
  can0  202   [8]  00 61 00 00 00 00 00 01
  can0  171   [8]  36 B0 00 00 00 00 00 00
  can0  1CA   [8]  00 00 00 00 00 00 00 00
  can0  205   [8]  00 80 00 00 00 80 00 00
  can0  255   [8]  00 00 00 00 00 00 00 00
  can0  265   [8]  6B 00 00 00 00 00 14 80
  can0  280   [8]  00 00 A0 0F 00 00 00 00
  can0  321   [8]  00 2D 00 07 3B 87 F7 F3
  can0  208   [8]  00 00 00 00 00 00 00 00
  can0  218   [8]  00 FF 80 00 00 00 21 5F
  can0  258   [8]  02 94 00 00 00 00 00 00
  can0  06E   [7]  A9 A1 7F A9 76 00 01
  can0  618   [8]  00 00 00 44 8C 00 0C C4
  can0  430   [8]  77 00 00 00 00 00 00 00
  can0  00A   [8]  B9 00 00 00 00 00 00 00
  can0  037   [6]  50 C3 00 00 00 30
  can0  185   [8]  5A 64 3F FB 7F AA C1 EE
  can0  285   [8]  01 3C 00 00 00 00 00 C0
  can0  375   [8]  2C 8D 0C 64 41 40 A6 FF
  can0  385   [8]  00 00 00 00 00 00 00 2A
  can0  485   [8]  54 43 11 28 C1 1A C0 35
  can0  617   [8]  00 00 00 00 00 00 0C 0C
  can0  202   [8]  00 6B 08 00 00 00 00 01
  can0  171   [8]  36 B0 00 00 00 00 00 00
  can0  1CA   [8]  00 00 00 00 00 00 00 00
  can0  205   [8]  00 80 00 00 00 80 00 00
  can0  255   [8]  00 00 00 00 00 00 00 00
  can0  265   [8]  6A 00 00 00 00 00 14 81
  can0  280   [8]  00 00 A0 0F 00 00 00 00
  can0  321   [8]  00 2D 00 07 4C 87 F7 F3
  can0  630   [7]  12 0A 00 00 00 E0 06
  can0  600   [5]  00 00 00 00 00
  can0  218   [8]  00 FF 80 00 00 00 22 5E
  can0  06E   [7]  63 A2 7F A9 76 00 01
  can0  382   [8]  51 01 10 06 00 00 10 06
  can0  202   [8]  00 75 10 00 00 00 00 01
  can0  171   [8]  36 B0 00 00 00 00 00 00
  can0  1CA   [8]  00 00 00 00 00 00 00 00
  can0  205   [8]  00 80 00 00 00 80 00 00
  can0  255   [8]  00 00 00 00 00 00 00 00
  can0  265   [8]  69 00 00 00 00 00 14 82
  can0  280   [8]  00 00 A0 0F 00 00 00 00
  can0  321   [8]  00 2D 00 07 5D 87 F7 F3
  can0  208   [8]  00 00 00 00 00 00 00 00
  can0  218   [8]  00 FF 80 00 00 00 23 5D
  can0  258   [8]  02 95 00 00 00 00 00 00
  can0  06E   [7]  25 A3 7F A9 76 00 01
  can0  202   [8]  00 7F 18 00 00 00 00 01
  can0  171   [8]  36 B0 00 00 00 00 00 00
  can0  1CA   [8]  00 00 00 00 00 00 00 00
  can0  205   [8]  00 80 00 00 00 80 00 00
  can0  255   [8]  00 00 00 00 00 00 00 00
  can0  265   [8]  68 00 00 00 00 00 14 83
  can0  275   [1]  01
  can0  280   [8]  00 00 A0 0F 00 00 00 00
  can0  400   [3]  FA 0E 30
  can0  411   [3]  08 0E 00
  can0  500   [7]  54 A0 00 2C 01 00 5A
  can0  321   [8]  00 2E 01 07 4E 87 F7 F3
  can0  510   [5]  5D 73 6D 0E 4D
  can0  620   [6]  B1 0E 47 46 76 11
  can0  218   [8]  00 FF 80 00 00 00 24 5C
  can0  00A   [8]  E4 01 00 00 00 00 00 00
  can0  06E   [7]  EA A4 7F A9 76 00 01
  can0  202   [8]  00 49 20 00 00 00 00 01
  can0  171   [8]  36 B0 00 00 00 00 00 00
  can0  1CA   [8]  00 00 00 00 00 00 00 00
  can0  205   [8]  00 80 00 00 00 80 00 00
  can0  255   [8]  00 00 00 00 00 00 00 00
  can0  265   [8]  67 00 00 00 00 00 14 84
  can0  280   [8]  00 00 A0 0F 00 00 00 00
  can0  321   [8]  00 2E 00 07 4F 87 F7 F3
  can0  208   [8]  00 00 00 00 00 00 00 00
  can0  218   [8]  00 FF 80 00 00 00 25 5B
  can0  258   [8]  02 94 00 00 00 00 00 00
  can0  06E   [7]  AC A5 7F A9 76 00 01
  can0  00A   [8]  03 02 00 00 00 00 00 00
  can0  202   [8]  00 43 28 00 00 00 00 01
  can0  171   [8]  36 AF 00 00 00 00 00 00
  can0  1CA   [8]  00 00 00 00 00 00 00 00
  can0  205   [8]  00 80 00 00 00 80 00 00
  can0  255   [8]  00 00 00 00 00 00 00 00
  can0  265   [8]  66 00 00 00 00 00 14 85
  can0  280   [8]  00 00 A0 0F 00 00 00 00
  can0  321   [8]  00 2F 01 07 B0 87 F7 F3
  can0  218   [8]  00 FF 80 00 00 00 26 5A
  can0  06E   [7]  66 A6 7F A9 76 00 01
  can0  202   [8]  00 5D 30 00 00 00 00 01
  can0  171   [8]  36 B0 00 00 00 00 00 00
  can0  1CA   [8]  00 00 00 00 00 00 00 00
  can0  205   [8]  00 80 00 00 00 80 00 00
  can0  255   [8]  00 00 00 00 00 00 00 00
  can0  265   [8]  65 00 00 00 00 00 14 86
  can0  280   [8]  00 00 A0 0F 00 00 00 00
  can0  321   [8]  00 30 01 07 41 87 F7 F3
  can0  208   [8]  00 00 00 00 00 00 00 00
  can0  218   [8]  00 FF 80 00 00 00 27 59
  can0  258   [8]  02 94 00 00 00 00 00 00
  can0  06E   [7]  20 A7 7F A9 76 00 01
  can0  00A   [8]  5E 03 00 00 00 00 00 00
  can0  202   [8]  00 57 38 00 00 00 00 01
  can0  171   [8]  36 B0 00 00 00 00 00 00
  can0  1CA   [8]  00 00 00 00 00 00 00 00
  can0  205   [8]  00 80 00 00 00 80 00 00
  can0  255   [8]  00 00 00 00 00 00 00 00
  can0  265   [8]  64 00 00 00 00 00 14 87
  can0  280   [8]  00 00 A0 0F 00 00 00 00
  can0  321   [8]  00 30 00 07 62 87 F7 F3
  can0  218   [8]  00 FF 80 00 00 00 28 58
  can0  06E   [7]  E5 A8 7F A9 76 00 01
  can0  202   [8]  00 31 40 00 00 00 00 01
  can0  171   [8]  36 B0 00 00 00 00 00 00
  can0  1CA   [8]  00 00 00 00 00 00 00 00
  can0  205   [8]  00 80 00 00 00 80 00 00
  can0  255   [8]  00 00 00 00 00 00 00 00
  can0  265   [8]  63 00 00 00 00 00 14 88
  can0  280   [8]  00 00 A0 0F 00 00 00 00
  can0  321   [8]  00 31 01 07 73 87 F7 F3
  can0  208   [8]  00 00 00 00 00 00 00 00
  can0  218   [8]  00 FF 80 00 00 00 29 57
  can0  258   [8]  02 94 00 00 00 00 00 00
  can0  06E   [7]  A3 A9 7F A9 76 00 01
  can0  202   [8]  00 3B 48 00 00 00 00 01
  can0  171   [8]  36 B0 00 00 00 00 00 00
  can0  1CA   [8]  00 00 00 00 00 00 00 00
  can0  205   [8]  00 80 00 00 00 80 00 00
  can0  255   [8]  00 00 00 00 00 00 00 00
  can0  265   [8]  62 00 00 00 00 00 14 89
  can0  280   [8]  00 00 A0 0F 00 00 00 00
  can0  390   [8]  00 01 00 00 00 00 00 00
  can0  321   [8]  00 31 00 07 14 87 F7 F3
  can0  00A   [8]  D0 04 00 00 00 00 00 00
  can0  218   [8]  00 FF 80 00 00 00 2A 56
  can0  06E   [7]  69 AA 7F A9 76 00 01
  can0  202   [8]  00 25 50 00 00 00 00 01
  can0  171   [8]  36 B0 00 00 00 00 00 00
  can0  1CA   [8]  00 00 00 00 00 00 00 00
  can0  205   [8]  00 80 00 00 00 80 00 00
  can0  255   [8]  00 00 00 00 00 00 00 00
  can0  265   [8]  61 00 00 00 00 00 14 8A
  can0  280   [8]  00 00 A0 0F 00 00 00 00
  can0  321   [8]  00 32 01 07 25 87 F7 F3
  can0  208   [8]  00 00 00 00 00 00 00 00
  can0  218   [8]  00 FF 80 00 00 00 2B 55
  can0  258   [8]  02 94 00 00 00 00 00 00
  can0  06E   [7]  2F AB 7F A9 76 00 01
  can0  618   [8]  00 00 00 44 8C 00 0D C5
  can0  617   [8]  00 00 00 00 00 00 0D 0D
  can0  00A   [8]  8D 05 00 00 00 00 00 00
  can0  185   [8]  5A 64 3F FB 7F AA D1 FE
  can0  285   [8]  01 3C 00 00 00 00 00 D0
  can0  375   [8]  CB 8E 0C 64 41 40 A6 FF
  can0  385   [8]  00 00 00 00 00 00 00 2A
  can0  430   [8]  77 00 00 00 00 00 00 00
  can0  485   [8]  54 43 11 28 C1 1A D0 25
  can0  202   [8]  00 2F 58 00 00 00 00 01
  can0  171   [8]  36 B1 00 00 00 00 00 00
  can0  1CA   [8]  00 00 00 00 00 00 00 00
  can0  205   [8]  00 80 00 00 00 80 00 00
  can0  255   [8]  00 00 00 04 00 00 00 00
  can0  265   [8]  60 00 00 00 00 00 14 8B
  can0  280   [8]  00 00 A0 0F 00 00 00 00
  can0  321   [8]  00 34 01 07 76 87 F7 F3
  can0  630   [7]  54 0B 00 00 00 E0 06
  can0  600   [5]  00 00 00 00 00
  can0  218   [8]  00 FF 80 00 00 00 2C 54
  can0  06E   [7]  E0 AC 7F A9 76 00 01
  can0  382   [8]  51 02 10 07 10 06 10 05
  can0  202   [8]  00 19 60 00 00 00 00 01
  can0  171   [8]  36 B0 00 00 00 00 00 00
  can0  1CA   [8]  00 00 00 00 00 00 00 00
  can0  205   [8]  00 80 00 00 00 80 00 00
  can0  255   [8]  00 00 00 00 00 00 00 00
  can0  265   [8]  5F 00 00 00 00 00 14 8C
  can0  280   [8]  00 00 A0 0F 00 00 00 00
  can0  321   [8]  00 35 01 07 77 87 F7 F3
  can0  208   [8]  00 00 00 00 00 00 00 00
  can0  218   [8]  00 FF 80 00 00 00 2D 53
  can0  258   [8]  02 94 00 00 00 00 00 00
  can0  06E   [7]  A6 AD 7F A9 76 00 01
  can0  202   [8]  00 13 68 00 00 00 00 01
  can0  171   [8]  36 B0 00 00 00 00 00 00
  can0  1CA   [8]  00 00 00 00 00 00 00 00
  can0  205   [8]  00 80 00 00 00 80 00 00
  can0  255   [8]  00 00 00 00 00 00 00 00
  can0  265   [8]  5E 00 00 00 00 00 14 8D
  can0  275   [1]  01
  can0  280   [8]  00 00 A0 0F 00 00 00 00
  can0  400   [3]  B6 0F 30
  can0  411   [3]  44 0F 00
  can0  500   [7]  54 A0 00 2C 01 00 5A
  can0  321   [8]  00 36 01 07 B8 87 F7 F3
  can0  510   [5]  5D 73 6D 0F 4C
  can0  620   [6]  DB 0F 47 46 76 11
  can0  218   [8]  00 FF 80 00 00 00 2E 52
  can0  00A   [8]  6A 06 00 00 00 00 00 00
  can0  06E   [7]  6C AE 7F A9 76 00 01
  can0  202   [8]  00 10 70 00 00 00 00 00
  can0  171   [8]  36 AE 00 00 00 00 00 00
  can0  1CA   [8]  00 00 00 00 00 00 00 00
  can0  205   [8]  00 80 00 00 00 80 00 00
  can0  255   [8]  00 00 00 00 00 00 00 00
  can0  265   [8]  5D 00 00 00 00 00 14 8E
  can0  280   [8]  00 00 A0 0F 00 00 00 00
  can0  321   [8]  00 36 00 07 B9 87 F7 F3
  can0  208   [8]  00 00 00 00 00 00 00 00
  can0  218   [8]  00 FF 80 00 00 00 2F 51
  can0  258   [8]  02 94 00 00 00 00 00 00
  can0  06E   [7]  2A AF 7F A9 76 00 01
  can0  00A   [8]  37 07 00 00 00 00 00 00
  can0  202   [8]  00 1A 78 00 00 00 00 00
  can0  171   [8]  36 B0 00 00 00 00 00 00
  can0  1CA   [8]  00 00 00 00 00 00 00 00
  can0  205   [8]  00 80 00 00 00 80 00 00
  can0  255   [8]  00 00 00 00 00 00 00 00
  can0  265   [8]  5C 00 00 00 00 00 14 8F
  can0  280   [8]  00 00 A0 0F 00 00 00 00
  can0  321   [8]  00 36 00 07 8A 87 F7 F3
  can0  218   [8]  00 FF 80 00 00 00 20 60
  can0  06E   [7]  EF A0 7F A9 76 00 01
  can0  202   [8]  00 7C 00 00 00 00 00 00
  can0  171   [8]  36 B0 00 00 00 00 00 00
  can0  1CA   [8]  00 00 00 00 00 00 00 00
  can0  205   [8]  00 80 00 00 00 80 00 00
  can0  255   [8]  00 00 00 00 00 00 00 00
  can0  265   [8]  6B 00 00 00 00 00 14 80
  can0  280   [8]  00 00 A0 0F 00 00 00 00
  can0  321   [8]  00 37 01 07 9B 87 F7 F3
  can0  208   [8]  00 00 00 00 00 00 00 00
  can0  218   [8]  00 FF 80 00 00 00 21 5F
  can0  258   [8]  02 94 00 00 00 00 00 00
  can0  06E   [7]  A9 A1 7F A9 76 00 01
  can0  00A   [8]  6B 08 00 00 00 00 00 00
  can0  202   [8]  00 76 08 00 00 00 00 00
  can0  171   [8]  36 B0 00 00 00 00 00 00
  can0  1CA   [8]  00 00 00 00 00 00 00 00
  can0  205   [8]  00 80 00 00 00 80 00 00
  can0  255   [8]  00 00 00 00 00 00 00 00
  can0  265   [8]  6A 00 00 00 00 00 14 81
  can0  280   [8]  00 00 A0 0F 00 00 00 00
  can0  321   [8]  00 36 FF 07 EC 87 F7 F3
  can0  218   [8]  00 FF 80 00 00 00 22 5E
  can0  06E   [7]  63 A2 7F A9 76 00 01
  can0  202   [8]  00 68 10 00 00 00 00 00
  can0  171   [8]  36 B0 00 00 00 00 00 00
  can0  1CA   [8]  00 00 00 00 00 00 00 00
  can0  205   [8]  00 80 00 00 00 80 00 00
  can0  255   [8]  00 00 00 00 00 00 00 00
  can0  265   [8]  69 00 00 00 00 00 14 82
  can0  280   [8]  00 00 A0 0F 00 00 00 00
  can0  321   [8]  00 36 00 07 FD 87 F7 F3
  can0  208   [8]  00 00 00 00 00 00 00 00
  can0  218   [8]  00 FF 80 00 00 00 23 5D
  can0  258   [8]  02 94 00 00 00 00 00 00
  can0  06E   [7]  25 A3 7F A9 76 00 01
  can0  202   [8]  00 62 18 00 00 00 00 00
  can0  171   [8]  36 B0 00 00 00 00 00 00
  can0  1CA   [8]  00 00 00 00 00 00 00 00
  can0  205   [8]  00 80 00 00 00 80 00 00
  can0  255   [8]  00 00 00 00 00 00 00 00
  can0  265   [8]  68 00 00 00 00 00 14 83
  can0  280   [8]  00 00 A0 0F 00 00 00 00
  can0  390   [8]  00 01 00 00 00 00 00 00
  can0  321   [8]  00 36 00 07 CE 87 F7 F3
  can0  00A   [8]  36 09 00 00 00 00 00 00
  can0  218   [8]  00 FF 80 00 00 00 24 5C
  can0  06E   [7]  EA A4 7F A9 76 00 01
  can0  202   [8]  00 54 20 00 00 00 00 00
  can0  171   [8]  36 B0 00 00 00 00 00 00
  can0  1CA   [8]  00 00 00 00 00 00 00 00
  can0  205   [8]  00 80 00 00 00 80 00 00
  can0  255   [8]  00 00 00 00 00 00 00 00
  can0  265   [8]  67 00 00 00 00 00 14 84
  can0  280   [8]  00 00 A0 0F 00 00 00 00
  can0  321   [8]  00 36 00 07 DF 87 F7 F3
  can0  208   [8]  00 00 00 00 00 00 00 00
  can0  218   [8]  00 FF 80 00 00 00 25 5B
  can0  258   [8]  02 94 00 00 00 00 00 00
  can0  06E   [7]  AC A5 7F A9 76 00 01
  can0  618   [8]  00 00 00 44 8C 00 0E C6
  can0  617   [8]  00 00 00 00 00 00 0E 0E
  can0  00A   [8]  D1 0A 00 00 00 00 00 00
  can0  185   [8]  5A 64 3F FB 7F AA E1 CE
  can0  285   [8]  01 3C 00 00 00 00 00 E0
  can0  375   [8]  96 8F 0C 64 41 40 A6 FF
  can0  385   [8]  00 00 00 00 00 00 00 2A
  can0  430   [8]  77 00 00 00 00 00 00 00
  can0  485   [8]  54 43 11 28 C1 1A E0 15
  can0  202   [8]  00 5E 28 00 00 00 00 00
  can0  171   [8]  36 B0 00 00 00 00 00 00
  can0  1CA   [8]  00 00 00 00 00 00 00 00
  can0  205   [8]  00 80 00 00 00 80 00 00
  can0  255   [8]  00 00 00 00 00 00 00 00
  can0  265   [8]  66 00 00 00 00 00 14 85
  can0  280   [8]  00 00 A0 0F 00 00 00 00
  can0  321   [8]  00 36 00 07 20 87 F7 F3
  can0  630   [7]  9B 0C 00 00 00 E0 06
  can0  600   [5]  00 00 00 00 00
  can0  218   [8]  00 FF 80 00 00 00 26 5A
  can0  06E   [7]  66 A6 7F A9 76 00 01
  can0  382   [8]  51 03 10 06 10 05 10 06
  can0  202   [8]  00 40 30 00 00 00 00 00
  can0  171   [8]  36 AF 00 00 00 00 00 00
  can0  1CA   [8]  00 00 00 00 00 00 00 00
  can0  205   [8]  00 80 00 00 00 80 00 00
  can0  255   [8]  00 00 00 00 00 00 00 00
  can0  265   [8]  65 00 00 00 00 00 14 86
  can0  280   [8]  00 00 A0 0F 00 00 00 00
  can0  321   [8]  00 36 00 07 31 87 F7 F3
  can0  208   [8]  00 00 00 00 00 00 00 00
  can0  218   [8]  00 FF 80 00 00 00 27 59
  can0  258   [8]  02 94 00 00 00 00 00 00
  can0  06E   [7]  20 A7 7F A9 76 00 01
  can0  202   [8]  00 4A 38 00 00 00 00 00
  can0  171   [8]  36 B0 00 00 00 00 00 00
  can0  1CA   [8]  00 00 00 00 00 00 00 00
  can0  205   [8]  00 80 00 00 00 80 00 00
  can0  255   [8]  00 00 00 00 00 00 00 00
  can0  265   [8]  64 00 00 00 00 00 14 87
  can0  275   [1]  01
  can0  280   [8]  00 00 A0 0F 00 00 00 00
  can0  400   [3]  15 00 30
  can0  411   [3]  E7 00 00
  can0  500   [7]  54 A0 00 2C 01 00 5A
  can0  510   [5]  5D 73 6D 00 43
  can0  321   [8]  00 37 01 07 02 87 F7 F3
  can0  620   [6]  A7 00 47 46 76 11
  can0  218   [8]  00 FF 80 00 00 00 28 58
  can0  00A   [8]  8C 0B 00 00 00 00 00 00
  can0  06E   [7]  E5 A8 7F A9 76 00 01
  can0  202   [8]  00 2C 40 00 00 00 00 00
  can0  171   [8]  36 B0 00 00 00 00 00 00
  can0  1CA   [8]  00 00 00 00 00 00 00 00
  can0  205   [8]  00 80 00 00 00 80 00 00
  can0  255   [8]  00 00 00 00 00 00 00 00
  can0  265   [8]  63 00 00 00 00 00 14 88
  can0  280   [8]  00 00 A0 0F 00 00 00 00
  can0  321   [8]  00 37 00 07 03 87 F7 F3
  can0  208   [8]  00 00 00 00 00 00 00 00
  can0  218   [8]  00 FF 80 00 00 00 29 57
  can0  258   [8]  02 94 00 00 00 00 00 00
  can0  06E   [7]  A3 A9 7F A9 76 00 01
  can0  00A   [8]  02 0C 00 00 00 00 00 00
  can0  202   [8]  00 26 48 00 00 00 00 00
  can0  171   [8]  36 B0 00 00 00 00 00 00
  can0  1CA   [8]  00 00 00 00 00 00 00 00
  can0  205   [8]  00 80 00 00 00 80 00 00
  can0  255   [8]  00 00 00 00 00 00 00 00
  can0  265   [8]  62 00 00 00 00 00 14 89
  can0  280   [8]  00 00 A0 0F 00 00 00 00
  can0  321   [8]  00 37 00 07 74 87 F7 F3
  can0  218   [8]  00 FF 80 00 00 00 2A 56
  can0  06E   [7]  69 AA 7F A9 76 00 01
  can0  202   [8]  00 38 50 00 00 00 00 00
  can0  171   [8]  36 B0 00 00 00 00 00 00
  can0  1CA   [8]  00 00 00 00 00 00 00 00
  can0  205   [8]  00 80 00 00 00 80 00 00
  can0  255   [8]  00 00 00 00 00 00 00 00
  can0  265   [8]  61 00 00 00 00 00 14 8A
  can0  280   [8]  00 00 A0 0F 00 00 00 00
  can0  321   [8]  00 36 FF 07 75 87 F7 F3
  can0  208   [8]  00 00 00 00 00 00 00 00
  can0  218   [8]  00 FF 80 00 00 00 2B 55
  can0  258   [8]  02 94 00 00 00 00 00 00
  can0  06E   [7]  2F AB 7F A9 76 00 01
  can0  00A   [8]  5F 0D 00 00 00 00 00 00
  can0  202   [8]  00 32 58 00 00 00 00 00
  can0  171   [8]  36 B0 00 00 00 00 00 00
  can0  1CA   [8]  00 00 00 00 00 00 00 00
  can0  205   [8]  00 80 00 00 00 80 00 00
  can0  255   [8]  00 00 00 00 00 00 00 00
  can0  265   [8]  60 00 00 00 00 00 14 8B
  can0  280   [8]  00 00 A0 0F 00 00 00 00
  can0  321   [8]  00 36 00 07 46 87 F7 F3
  can0  218   [8]  00 FF 80 00 00 00 2C 54
  can0  06E   [7]  E0 AC 7F A9 76 00 01
  can0  202   [8]  00 04 60 00 00 00 00 00
  can0  171   [8]  36 B0 00 00 00 00 00 00
  can0  1CA   [8]  00 00 00 00 00 00 00 00
  can0  205   [8]  00 80 00 00 00 80 00 00
  can0  255   [8]  00 00 00 00 00 00 00 00
  can0  265   [8]  5F 00 00 00 00 00 14 8C
  can0  280   [8]  00 00 A0 0F 00 00 00 00
  can0  321   [8]  00 36 00 07 57 87 F7 F3
  can0  208   [8]  00 00 00 00 00 00 00 00
  can0  218   [8]  00 FF 80 00 00 00 2D 53
  can0  258   [8]  02 94 00 00 00 00 00 00
  can0  06E   [7]  A6 AD 7F A9 76 00 01
  can0  202   [8]  00 0E 68 00 00 00 00 00
  can0  171   [8]  36 AF 00 00 00 00 00 00
  can0  1CA   [8]  00 00 00 00 00 00 00 00
  can0  205   [8]  00 80 00 00 00 80 00 00
  can0  255   [8]  00 00 00 00 00 00 00 00
  can0  265   [8]  5E 00 00 00 00 00 14 8D
  can0  280   [8]  00 00 A0 0F 00 00 00 00
  can0  390   [8]  00 01 00 00 00 00 00 00
  can0  00A   [8]  B8 0E 00 00 00 00 00 00
  can0  321   [8]  00 36 00 07 A8 87 F7 F3
  can0  218   [8]  00 FF 80 00 00 00 2E 52
  can0  06E   [7]  6C AE 7F A9 76 00 01
  can0  202   [8]  00 10 70 00 00 00 00 00
  can0  171   [8]  36 B0 00 00 00 00 00 00
  can0  1CA   [8]  00 00 00 00 00 00 00 00
  can0  205   [8]  00 80 00 00 00 80 00 00
  can0  255   [8]  00 00 00 00 00 00 00 00
  can0  265   [8]  5D 00 00 00 00 00 14 8E
  can0  280   [8]  00 00 A0 0F 00 00 00 00
  can0  321   [8]  00 36 00 07 B9 87 F7 F3
  can0  208   [8]  00 00 00 00 00 00 00 00
  can0  218   [8]  00 FF 80 00 00 00 2F 51
  can0  258   [8]  02 94 00 00 00 00 00 00
  can0  06E   [7]  2A AF 7F A9 76 00 01
  can0  618   [8]  00 00 00 44 8C 00 0F C7
  can0  617   [8]  00 00 00 00 00 00 0F 0F
  can0  00A   [8]  E5 0F 00 00 00 00 00 00
  can0  185   [8]  5A 64 3F FB 7F AA F1 DE
  can0  285   [8]  01 3C 00 00 00 00 00 F0
  can0  375   [8]  CA 80 0C 64 41 40 A6 FF
  can0  385   [8]  00 00 00 00 00 00 00 2A
  can0  430   [8]  77 00 00 00 00 00 00 00
  can0  485   [8]  54 43 11 28 C1 1A F0 05
  can0  202   [8]  00 1A 78 00 00 00 00 00
  can0  171   [8]  36 B0 00 00 00 00 00 00
  can0  1CA   [8]  00 00 00 00 00 00 00 00
  can0  205   [8]  00 80 00 00 00 80 00 00
  can0  255   [8]  00 00 00 00 00 00 00 00
  can0  265   [8]  5C 00 00 00 00 00 14 8F
  can0  280   [8]  00 00 A0 0F 00 00 00 00
  can0  321   [8]  00 35 FF 07 BA 87 F7 F3
  can0  630   [7]  DD 0D 00 00 00 E0 06
  can0  600   [5]  00 00 00 00 00
  can0  420   [8]  00 6E 00 00 02 00 00 00
  can0  600   [5]  00 00 00 00 00
  can0  601   [8]  75 03 00 00 CF 0F 00 69
  can0  218   [8]  00 FF 80 00 00 00 20 60
  can0  621   [6]  EA 4B 86 62 00 1C
  can0  06E   [7]  EF A0 7F A9 76 00 01
  can0  382   [8]  51 04 FE 70 00 D4 00 D9
  can0  202   [8]  00 61 00 00 00 00 00 01
  can0  171   [8]  36 B0 00 00 00 00 00 00
  can0  1CA   [8]  00 00 00 00 00 00 00 00
  can0  205   [8]  00 80 00 00 00 80 00 00
  can0  255   [8]  00 00 00 00 00 00 00 00
  can0  265   [8]  6B 00 00 00 00 00 14 80
  can0  280   [8]  00 00 A0 0F 00 00 00 00
  can0  321   [8]  00 35 00 07 AB 87 F7 F3
  can0  208   [8]  00 00 00 00 00 00 00 00
  can0  218   [8]  00 FF 80 00 00 00 21 5F
  can0  258   [8]  02 94 00 00 00 00 00 00
  can0  06E   [7]  A9 A1 7F A9 76 00 01
  can0  202   [8]  00 6B 08 00 00 00 00 01
  can0  171   [8]  36 B0 00 00 00 00 00 00
  can0  1CA   [8]  00 00 00 00 00 00 00 00
  can0  205   [8]  00 80 00 00 00 80 00 00
  can0  255   [8]  00 00 00 00 00 00 00 00
  can0  265   [8]  6A 00 00 00 00 00 14 81
  can0  275   [1]  01
  can0  280   [8]  00 00 A0 0F 00 00 00 00
  can0  400   [3]  59 01 30
  can0  411   [3]  AB 01 00
  can0  500   [7]  54 A0 00 2C 01 00 5A
  can0  510   [5]  5D 73 6D 01 42
  can0  620   [6]  CD 01 47 46 76 11
  can0  321   [8]  00 35 00 07 DC 87 F7 F3
  can0  218   [8]  00 FF 80 00 00 00 22 5E
  can0  00A   [8]  B9 00 00 00 00 00 00 00
  can0  06E   [7]  63 A2 7F A9 76 00 01
  can0  202   [8]  00 75 10 00 00 00 00 01
  can0  171   [8]  36 B0 00 00 00 00 00 00
  can0  1CA   [8]  00 00 00 00 00 00 00 00
  can0  205   [8]  00 80 00 00 00 80 00 00
  can0  255   [8]  00 00 00 00 00 00 00 00
  can0  265   [8]  69 00 00 00 00 00 14 82
  can0  280   [8]  00 00 A0 0F 00 00 00 00
  can0  321   [8]  00 35 00 07 CD 87 F7 F3
  can0  208   [8]  00 00 00 00 00 00 00 00
  can0  218   [8]  00 FF 80 00 00 00 23 5D
  can0  258   [8]  02 94 00 00 00 00 00 00
  can0  06E   [7]  25 A3 7F A9 76 00 01
  can0  00A   [8]  E4 01 00 00 00 00 00 00
  can0  202   [8]  00 7F 18 00 00 00 00 01
  can0  171   [8]  36 AF 00 00 00 00 00 00
  can0  1CA   [8]  00 00 00 00 00 00 00 00
  can0  205   [8]  00 80 00 00 00 80 00 00
  can0  255   [8]  00 00 00 00 00 00 00 00
  can0  265   [8]  68 00 00 00 00 00 14 83
  can0  280   [8]  00 00 A0 0F 00 00 00 00
  can0  321   [8]  00 35 00 07 FE 87 F7 F3
  can0  218   [8]  00 FF 80 00 00 00 24 5C
  can0  06E   [7]  EA A4 7F A9 76 00 01
  can0  202   [8]  00 49 20 00 00 00 00 01
  can0  171   [8]  36 AF 00 00 00 00 00 00
  can0  1CA   [8]  00 00 00 00 00 00 00 00
  can0  205   [8]  00 80 00 00 00 80 00 00
  can0  255   [8]  00 00 00 00 00 00 00 00
  can0  265   [8]  67 00 00 00 00 00 14 84
  can0  280   [8]  00 00 A0 0F 00 00 00 00
  can0  321   [8]  00 35 00 07 EF 87 F7 F3
  can0  208   [8]  00 00 00 00 00 00 00 00
  can0  218   [8]  00 FF 80 00 00 00 25 5B
  can0  258   [8]  02 94 00 00 00 00 00 00
  can0  06E   [7]  AC A5 7F A9 76 00 01
  can0  00A   [8]  03 02 00 00 00 00 00 00
  can0  202   [8]  00 43 28 00 00 00 00 01
  can0  171   [8]  36 B0 00 00 00 00 00 00
  can0  1CA   [8]  00 00 00 00 00 00 00 00
  can0  205   [8]  00 80 00 00 00 80 00 00
  can0  255   [8]  00 00 00 00 00 00 00 00
  can0  265   [8]  66 00 00 00 00 00 14 85
  can0  280   [8]  00 00 A0 0F 00 00 00 00
  can0  321   [8]  00 35 00 07 10 87 F7 F3
  can0  218   [8]  00 FF 80 00 00 00 26 5A
  can0  06E   [7]  66 A6 7F A9 76 00 01
  can0  202   [8]  00 5D 30 00 00 00 00 01
  can0  171   [8]  36 B0 00 00 00 00 00 00
  can0  1CA   [8]  00 00 00 00 00 00 00 00
  can0  205   [8]  00 80 00 00 00 80 00 00
  can0  255   [8]  00 00 00 00 00 00 00 00
  can0  265   [8]  65 00 00 00 00 00 14 86
  can0  280   [8]  00 00 A0 0F 00 00 00 00
  can0  321   [8]  00 35 00 07 01 87 F7 F3
  can0  208   [8]  00 00 00 00 00 00 00 00
  can0  218   [8]  00 FF 80 00 00 00 27 59
  can0  258   [8]  02 94 00 00 00 00 00 00
  can0  06E   [7]  20 A7 7F A9 76 00 01
  can0  202   [8]  00 57 38 00 00 00 00 01
  can0  171   [8]  36 B0 00 00 00 00 00 00
  can0  1CA   [8]  00 00 00 00 00 00 00 00
  can0  205   [8]  00 80 00 00 00 80 00 00
  can0  255   [8]  00 00 00 00 00 00 00 00
  can0  265   [8]  64 00 00 00 00 00 14 87
  can0  280   [8]  00 00 A0 0F 00 00 00 00
  can0  390   [8]  00 01 00 00 00 00 00 00
  can0  00A   [8]  5E 03 00 00 00 00 00 00
  can0  321   [8]  00 35 00 07 32 87 F7 F3
  can0  218   [8]  00 FF 80 00 00 00 28 58
  can0  06E   [7]  E5 A8 7F A9 76 00 01
  can0  202   [8]  00 31 40 00 00 00 00 01
  can0  171   [8]  36 AF 00 00 00 00 00 00
  can0  1CA   [8]  00 00 00 00 00 00 00 00
  can0  205   [8]  00 80 00 00 00 80 00 00
  can0  255   [8]  00 00 00 00 00 00 00 00
  can0  265   [8]  63 00 00 00 00 00 14 88
  can0  280   [8]  00 00 A0 0F 00 00 00 00
  can0  321   [8]  00 34 FF 07 33 87 F7 F3
  can0  208   [8]  00 00 00 00 00 00 00 00
  can0  218   [8]  00 FF 80 00 00 00 29 57
  can0  258   [8]  02 93 00 00 00 00 00 00
  can0  06E   [7]  A3 A9 7F A9 76 00 01
  can0  618   [8]  00 00 00 44 8C 00 00 C8
  can0  430   [8]  77 00 00 00 00 00 00 00
  can0  00A   [8]  D0 04 00 00 00 00 00 00
  can0  185   [8]  5A 64 3F FB 7F AA 01 2E
  can0  285   [8]  01 3C 00 00 00 00 00 00
  can0  375   [8]  97 81 0C 64 41 40 A6 FF
  can0  385   [8]  00 00 00 00 00 00 00 2A
  can0  485   [8]  54 43 11 28 C1 1A 00 F5
  can0  617   [8]  00 00 00 00 00 00 00 00
  can0  202   [8]  00 3B 48 00 00 00 00 01
  can0  171   [8]  36 B0 00 00 00 00 00 00
  can0  1CA   [8]  00 00 00 00 00 00 00 00
  can0  205   [8]  00 80 00 00 00 80 00 00
  can0  255   [8]  00 00 00 00 00 00 00 00
  can0  265   [8]  62 00 00 00 00 00 14 89
  can0  280   [8]  00 00 A0 0F 00 00 00 00
  can0  321   [8]  00 32 FF 07 24 87 F7 F3
  can0  630   [7]  17 0E 00 00 00 E0 06
  can0  600   [5]  00 00 00 00 00
  can0  218   [8]  00 FF 80 00 00 00 2A 56
  can0  06E   [7]  69 AA 7F A9 76 00 01
  can0  382   [8]  51 05 00 DA FE 70 00 00
  can0  202   [8]  00 25 50 00 00 00 00 01
  can0  171   [8]  36 B0 00 00 00 00 00 00
  can0  1CA   [8]  00 00 00 00 00 00 00 00
  can0  205   [8]  00 80 00 00 00 80 00 00
  can0  255   [8]  00 00 00 00 00 00 00 00
  can0  265   [8]  61 00 00 00 00 00 14 8A
  can0  280   [8]  00 00 A0 0F 00 00 00 00
  can0  321   [8]  00 31 FF 07 05 87 F7 F3
  can0  208   [8]  00 00 00 00 00 00 00 00
  can0  218   [8]  00 FF 80 00 00 00 2B 55
  can0  258   [8]  02 94 00 00 00 00 00 00
  can0  06E   [7]  2F AB 7F A9 76 00 01
  can0  202   [8]  00 2F 58 00 00 00 00 01
  can0  171   [8]  36 B0 00 00 00 00 00 00
  can0  1CA   [8]  00 00 00 00 00 00 00 00
  can0  205   [8]  00 80 00 00 00 80 00 00
  can0  255   [8]  00 00 00 00 00 00 00 00
  can0  265   [8]  60 00 00 00 00 00 14 8B
  can0  275   [1]  01
  can0  280   [8]  00 00 A0 0F 00 00 00 00
  can0  400   [3]  8D 02 30
  can0  411   [3]  7F 02 00
  can0  500   [7]  54 A0 00 2C 01 00 5A
  can0  510   [5]  5D 73 6D 02 41
  can0  620   [6]  73 02 47 46 76 11
  can0  321   [8]  00 31 00 07 36 87 F7 F3
  can0  218   [8]  00 FF 80 00 00 00 2C 54
  can0  00A   [8]  8D 05 00 00 00 00 00 00
  can0  06E   [7]  E0 AC 7F A9 76 00 01
  can0  202   [8]  00 19 60 00 00 00 00 01
  can0  171   [8]  36 B0 00 00 00 00 00 00
  can0  1CA   [8]  00 00 00 00 00 00 00 00
  can0  205   [8]  00 80 00 00 00 80 00 00
  can0  255   [8]  00 00 00 00 00 00 00 00
  can0  265   [8]  5F 00 00 00 00 00 14 8C
  can0  280   [8]  00 00 A0 0F 00 00 00 00
  can0  321   [8]  00 30 FF 07 37 87 F7 F3
  can0  208   [8]  00 00 00 00 00 00 00 00
  can0  218   [8]  00 FF 80 00 00 00 2D 53
  can0  258   [8]  02 94 00 00 00 00 00 00
  can0  06E   [7]  A6 AD 7F A9 76 00 01
  can0  00A   [8]  6A 06 00 00 00 00 00 00
  can0  202   [8]  00 13 68 00 00 00 00 01
  can0  171   [8]  36 B0 00 00 00 00 00 00
  can0  1CA   [8]  00 00 00 00 00 00 00 00
  can0  205   [8]  00 80 00 00 00 80 00 00
  can0  255   [8]  00 00 00 00 00 00 00 00
  can0  265   [8]  5E 00 00 00 00 00 14 8D
  can0  280   [8]  00 00 A0 0F 00 00 00 00
  can0  321   [8]  00 30 00 07 C8 87 F7 F3
  can0  218   [8]  00 FF 80 00 00 00 2E 52
  can0  06E   [7]  6C AE 7F A9 76 00 01
  can0  202   [8]  00 0D 70 00 00 00 00 01
  can0  171   [8]  36 B0 00 00 00 00 00 00
  can0  1CA   [8]  00 00 00 00 00 00 00 00
  can0  205   [8]  00 80 00 00 00 80 00 00
  can0  255   [8]  00 00 00 00 00 00 00 00
  can0  265   [8]  5D 00 00 00 00 00 14 8E
  can0  280   [8]  00 00 A0 0F 00 00 00 00
  can0  321   [8]  00 30 00 07 D9 87 F7 F3
  can0  208   [8]  00 00 00 00 00 00 00 00
  can0  218   [8]  00 FF 80 00 00 00 2F 51
  can0  258   [8]  02 94 00 00 00 00 00 00
  can0  06E   [7]  2A AF 7F A9 76 00 01
  can0  00A   [8]  37 07 00 00 00 00 00 00
  can0  202   [8]  00 07 78 00 00 00 00 01
  can0  171   [8]  36 B0 00 00 00 00 00 00
  can0  1CA   [8]  00 00 00 00 00 00 00 00
  can0  205   [8]  00 80 00 00 00 80 00 00
  can0  255   [8]  00 00 00 00 00 00 00 00
  can0  265   [8]  5C 00 00 00 00 00 14 8F
  can0  280   [8]  00 00 A0 0F 00 00 00 00
  can0  321   [8]  00 30 00 07 EA 87 F7 F3
  can0  218   [8]  00 FF 80 00 00 00 20 60
  can0  06E   [7]  EF A0 7F A9 76 00 01
  can0  202   [8]  00 61 00 00 00 00 00 01
  can0  171   [8]  36 B0 00 00 00 00 00 00
  can0  1CA   [8]  00 00 00 00 00 00 00 00
  can0  205   [8]  00 80 00 00 00 80 00 00
  can0  255   [8]  00 00 00 00 00 00 00 00
  can0  265   [8]  6B 00 00 00 00 00 14 80
  can0  280   [8]  00 00 A0 0F 00 00 00 00
  can0  321   [8]  00 30 00 07 FB 87 F7 F3
  can0  208   [8]  00 00 00 00 00 00 00 00
  can0  218   [8]  00 FF 80 00 00 00 21 5F
  can0  258   [8]  02 93 00 00 00 00 00 00
  can0  06E   [7]  A9 A1 7F A9 76 00 01
  can0  202   [8]  00 6B 08 00 00 00 00 01
  can0  171   [8]  36 B0 00 00 00 00 00 00
  can0  1CA   [8]  00 00 00 00 00 00 00 00
  can0  205   [8]  00 80 00 00 00 80 00 00
  can0  255   [8]  00 00 00 00 00 00 00 00
  can0  265   [8]  6A 00 00 00 00 00 14 81
  can0  280   [8]  00 00 A0 0F 00 00 00 00
  can0  390   [8]  00 01 00 00 00 00 00 00
  can0  00A   [8]  6B 08 00 00 00 00 00 00
  can0  321   [8]  00 30 00 07 8C 87 F7 F3
  can0  218   [8]  00 FF 80 00 00 00 22 5E
  can0  06E   [7]  63 A2 7F A9 76 00 01
  can0  202   [8]  00 75 10 00 00 00 00 01
  can0  171   [8]  36 B0 00 00 00 00 00 00
  can0  1CA   [8]  00 00 00 00 00 00 00 00
  can0  205   [8]  00 80 00 00 00 80 00 00
  can0  255   [8]  00 00 00 00 00 00 00 00
  can0  265   [8]  69 00 00 00 00 00 14 82
  can0  280   [8]  00 00 A0 0F 00 00 00 00
  can0  321   [8]  00 30 00 07 9D 87 F7 F3
  can0  208   [8]  00 00 00 00 00 00 00 00
  can0  218   [8]  00 FF 80 00 00 00 23 5D
  can0  258   [8]  02 93 00 00 00 00 00 00
  can0  06E   [7]  25 A3 7F A9 76 00 01
  can0  618   [8]  00 00 00 44 8C 00 01 C9
  can0  617   [8]  00 00 00 00 00 00 01 01
  can0  00A   [8]  36 09 00 00 00 00 00 00
  can0  185   [8]  5A 64 3F FB 7F AA 11 3E
  can0  285   [8]  01 3C 00 00 00 00 00 10
  can0  375   [8]  70 82 0C 64 41 40 A6 FF
  can0  385   [8]  00 00 00 00 00 00 00 2A
  can0  430   [8]  77 00 00 00 00 00 00 00
  can0  485   [8]  54 43 11 28 C1 1A 10 E5
  can0  202   [8]  00 7F 18 00 00 00 00 01
  can0  171   [8]  36 AF 00 00 00 00 00 00
  can0  1CA   [8]  00 00 00 00 00 00 00 00
  can0  205   [8]  00 80 00 00 00 80 00 00
  can0  255   [8]  00 00 00 00 00 00 00 00
  can0  265   [8]  68 00 00 00 00 00 14 83
  can0  280   [8]  00 00 A0 0F 00 00 00 00
  can0  321   [8]  00 30 00 07 AE 87 F7 F3
  can0  630   [7]  51 0F 00 00 00 E0 06
  can0  600   [5]  00 00 00 00 00
  can0  218   [8]  00 FF 80 00 00 00 24 5C
  can0  06E   [7]  EA A4 7F A9 76 00 01
  can0  382   [8]  51 06 00 00 00 00 00 00
  can0  202   [8]  00 49 20 00 00 00 00 01
  can0  171   [8]  36 B0 00 00 00 00 00 00
  can0  1CA   [8]  00 00 00 00 00 00 00 00
  can0  205   [8]  00 80 00 00 00 80 00 00
  can0  255   [8]  00 00 00 00 00 00 00 00
  can0  265   [8]  67 00 00 00 00 00 14 84
  can0  280   [8]  00 00 A0 0F 00 00 00 00
  can0  321   [8]  00 2F FF 07 5F 87 F7 F3
  can0  208   [8]  00 00 00 00 00 00 00 00
  can0  218   [8]  00 FF 80 00 00 00 25 5B
  can0  258   [8]  02 92 00 00 00 00 00 00
  can0  06E   [7]  AC A5 7F A9 76 00 01
  can0  202   [8]  00 43 28 00 00 00 00 01
  can0  171   [8]  36 B0 00 00 00 00 00 00
  can0  1CA   [8]  00 00 00 00 00 00 00 00
  can0  205   [8]  00 80 00 00 00 80 00 00
  can0  255   [8]  00 00 00 00 00 00 00 00
  can0  265   [8]  66 00 00 00 00 00 14 85
  can0  275   [1]  01
  can0  280   [8]  00 00 A0 0F 00 00 00 00
  can0  400   [3]  C1 03 30
  can0  411   [3]  33 03 00
  can0  500   [7]  54 A0 00 2C 01 00 5A
  can0  510   [5]  5D 73 6D 03 40
  can0  620   [6]  19 03 47 46 76 11
  can0  321   [8]  00 2E FF 07 B0 87 F7 F3
  can0  218   [8]  00 FF 80 00 00 00 26 5A
  can0  00A   [8]  D1 0A 00 00 00 00 00 00
  can0  06E   [7]  66 A6 7F A9 76 00 01
  can0  202   [8]  00 5D 30 00 00 00 00 01
  can0  171   [8]  36 B0 00 00 00 00 00 00
  can0  1CA   [8]  00 00 00 00 00 00 00 00
  can0  205   [8]  00 80 00 00 00 80 00 00
  can0  255   [8]  00 00 00 00 00 00 00 00
  can0  265   [8]  65 00 00 00 00 00 14 86
  can0  280   [8]  00 00 A0 0F 00 00 00 00
  can0  321   [8]  00 2D FF 07 91 87 F7 F3
  can0  208   [8]  00 00 00 00 00 00 00 00
  can0  218   [8]  00 FF 80 00 00 00 27 59
  can0  258   [8]  02 92 00 00 00 00 00 00
  can0  06E   [7]  20 A7 7F A9 76 00 01
  can0  00A   [8]  8C 0B 00 00 00 00 00 00
  can0  202   [8]  00 57 38 00 00 00 00 01
  can0  171   [8]  36 B0 00 00 00 00 00 00
  can0  1CA   [8]  00 00 00 00 00 00 00 00
  can0  205   [8]  00 80 00 00 00 80 00 00
  can0  255   [8]  00 00 00 00 00 00 00 00
  can0  265   [8]  64 00 00 00 00 00 14 87
  can0  280   [8]  00 00 A0 0F 00 00 00 00
  can0  321   [8]  00 2D 00 07 A2 87 F7 F3
  can0  218   [8]  00 FF 80 00 00 00 28 58
  can0  06E   [7]  E5 A8 7F A9 76 00 01
  can0  202   [8]  00 31 40 00 00 00 00 01
  can0  171   [8]  36 AF 00 00 00 00 00 00
  can0  1CA   [8]  00 00 00 00 00 00 00 00
  can0  205   [8]  00 80 00 00 00 80 00 00
  can0  255   [8]  00 00 00 00 00 00 00 00
  can0  265   [8]  63 00 00 00 00 00 14 88
  can0  280   [8]  00 00 A0 0F 00 00 00 00
  can0  321   [8]  00 2D 00 07 B3 87 F7 F3
  can0  208   [8]  00 00 00 00 00 00 00 00
  can0  218   [8]  00 FF 80 00 00 00 29 57
  can0  258   [8]  02 92 00 00 00 00 00 00
  can0  06E   [7]  A3 A9 7F A9 76 00 01
  can0  00A   [8]  02 0C 00 00 00 00 00 00
  can0  202   [8]  00 3B 48 00 00 00 00 01
  can0  171   [8]  36 B0 00 00 00 00 00 00
  can0  1CA   [8]  00 00 00 00 00 00 00 00
  can0  205   [8]  00 80 00 00 00 80 00 00
  can0  255   [8]  00 00 00 00 00 00 00 00
  can0  265   [8]  62 00 00 00 00 00 14 89
  can0  280   [8]  00 00 A0 0F 00 00 00 00
  can0  321   [8]  00 2B FE 07 B4 87 F7 F3
  can0  218   [8]  00 FF 80 00 00 00 2A 56
  can0  06E   [7]  69 AA 7F A9 76 00 01
  can0  202   [8]  00 25 50 00 00 00 00 01
  can0  171   [8]  36 B0 00 00 00 00 00 00
  can0  1CA   [8]  00 00 00 00 00 00 00 00
  can0  205   [8]  00 80 00 00 00 80 00 00
  can0  255   [8]  00 00 00 00 00 00 00 00
  can0  265   [8]  61 00 00 00 00 00 14 8A
  can0  280   [8]  00 00 A0 0F 00 00 00 00
  can0  321   [8]  00 2A FF 07 A5 87 F7 F3
  can0  208   [8]  00 00 00 00 00 00 00 00
  can0  218   [8]  00 FF 80 00 00 00 2B 55
  can0  258   [8]  02 92 00 00 00 00 00 00
  can0  06E   [7]  2F AB 7F A9 76 00 01
  can0  202   [8]  00 2F 58 00 00 00 00 01
  can0  171   [8]  36 B0 00 00 00 00 00 00
  can0  1CA   [8]  00 00 00 00 00 00 00 00
  can0  205   [8]  00 80 00 00 00 80 00 00
  can0  255   [8]  00 00 00 00 00 00 00 00
  can0  265   [8]  60 00 00 00 00 00 14 8B
  can0  280   [8]  00 00 A0 0F 00 00 00 00
  can0  390   [8]  00 01 00 00 00 00 00 00
  can0  00A   [8]  5F 0D 00 00 00 00 00 00
  can0  321   [8]  00 29 FF 07 A6 87 F7 F3
  can0  218   [8]  00 FF 80 00 00 00 2C 54
  can0  06E   [7]  E0 AC 7F A9 76 00 01
  can0  202   [8]  00 19 60 00 00 00 00 01
  can0  171   [8]  36 B0 00 00 00 00 00 00
  can0  1CA   [8]  00 00 00 00 00 00 00 00
  can0  205   [8]  00 80 00 00 00 80 00 00
  can0  255   [8]  00 00 00 00 00 00 00 00
  can0  265   [8]  5F 00 00 00 00 00 14 8C
  can0  280   [8]  00 00 A0 0F 00 00 00 00
  can0  321   [8]  00 27 FF 07 57 87 F7 F3
  can0  208   [8]  00 00 00 00 00 00 00 00
  can0  218   [8]  00 FF 80 00 00 00 2D 53
  can0  258   [8]  02 91 00 00 00 00 00 00
  can0  06E   [7]  A6 AD 7F A9 76 00 01
  can0  618   [8]  00 00 00 44 8C 00 02 CA
  can0  430   [8]  77 00 00 00 00 00 00 00
  can0  00A   [8]  B8 0E 00 00 00 00 00 00
  can0  185   [8]  5A 64 3F FB 7F AA 21 0E
  can0  285   [8]  01 3C 00 00 00 00 00 20
  can0  375   [8]  2D 83 0C 64 41 40 A6 FF
  can0  385   [8]  00 00 00 00 00 00 00 2A
  can0  485   [8]  54 43 11 28 C1 1A 20 D5
  can0  617   [8]  00 00 00 00 00 00 02 02
  can0  202   [8]  00 13 68 00 00 00 00 01
  can0  171   [8]  36 B0 00 00 00 00 00 00
  can0  1CA   [8]  00 00 00 00 00 00 00 00
  can0  205   [8]  00 80 00 00 00 80 00 00
  can0  255   [8]  00 00 00 00 00 00 00 00
  can0  265   [8]  5E 00 00 00 00 00 14 8D
  can0  280   [8]  00 00 A0 0F 00 00 00 00
  can0  321   [8]  00 26 FF 07 B8 87 F7 F3
  can0  630   [7]  94 00 00 00 00 E0 06
  can0  600   [5]  00 00 00 00 00
  can0  218   [8]  00 FF 80 00 00 00 2E 52
  can0  06E   [7]  6C AE 7F A9 76 00 01
  can0  382   [8]  51 07 01 10 06 10 06 00
  can0  202   [8]  00 0D 70 00 00 00 00 01
  can0  171   [8]  36 B0 00 00 00 00 00 00
  can0  1CA   [8]  00 00 00 00 00 00 00 00
  can0  205   [8]  00 80 00 00 00 80 00 00
  can0  255   [8]  00 00 00 00 00 00 00 00
  can0  265   [8]  5D 00 00 00 00 00 14 8E
  can0  280   [8]  00 00 A0 0F 00 00 00 00
  can0  321   [8]  00 26 00 07 A9 87 F7 F3
  can0  208   [8]  00 00 00 00 00 00 00 00
  can0  218   [8]  00 FF 80 00 00 00 2F 51
  can0  258   [8]  02 91 00 00 00 00 00 00
  can0  06E   [7]  2A AF 7F A9 76 00 01
  can0  202   [8]  00 07 78 00 00 00 00 01
  can0  171   [8]  36 AF 00 00 00 00 00 00
  can0  1CA   [8]  00 00 00 00 00 00 00 00
  can0  205   [8]  00 80 00 00 00 80 00 00
  can0  255   [8]  00 00 00 00 00 00 00 00
  can0  265   [8]  5C 00 00 00 00 00 14 8F
  can0  275   [1]  01
  can0  280   [8]  00 00 A0 0F 00 00 00 00
  can0  400   [3]  38 04 30
  can0  411   [3]  CA 04 00
  can0  500   [7]  54 A0 00 2C 01 00 5A
  can0  510   [5]  5D 73 6D 04 47
  can0  620   [6]  12 04 47 46 76 11
  can0  321   [8]  00 24 FE 07 AA 87 F7 F3
  can0  218   [8]  00 FF 80 00 00 00 20 60
  can0  00A   [8]  E5 0F 00 00 00 00 00 00
  can0  06E   [7]  EF A0 7F A9 76 00 01
  can0  202   [8]  00 61 00 00 00 00 00 01
  can0  171   [8]  36 B0 00 00 00 00 00 00
  can0  1CA   [8]  00 00 00 00 00 00 00 00
  can0  205   [8]  00 80 00 00 00 80 00 00
  can0  255   [8]  00 00 00 00 00 00 00 00
  can0  265   [8]  6B 00 00 00 00 00 14 80
  can0  280   [8]  00 00 A0 0F 00 00 00 00
  can0  321   [8]  00 24 00 07 AB 87 F7 F3
  can0  208   [8]  00 00 00 00 00 00 00 00
  can0  218   [8]  00 FF 80 00 00 00 21 5F
  can0  258   [8]  02 90 00 00 00 00 00 00
  can0  06E   [7]  A9 A1 7F A9 76 00 01
  can0  00A   [8]  B9 00 00 00 00 00 00 00
  can0  202   [8]  00 6B 08 00 00 00 00 01
  can0  171   [8]  36 B0 00 00 00 00 00 00
  can0  1CA   [8]  00 00 00 00 00 00 00 00
  can0  205   [8]  00 80 00 00 00 80 00 00
  can0  255   [8]  00 00 00 00 00 00 00 00
  can0  265   [8]  6A 00 00 00 00 00 14 81
  can0  280   [8]  00 00 A0 0F 00 00 00 00
  can0  321   [8]  00 23 FF 07 AC 87 F7 F3
  can0  218   [8]  00 FF 80 00 00 00 22 5E
  can0  06E   [7]  63 A2 7F A9 76 00 01
  can0  202   [8]  00 75 10 00 00 00 00 01
  can0  171   [8]  36 B0 00 00 00 00 00 00
  can0  1CA   [8]  00 00 00 00 00 00 00 00
  can0  205   [8]  00 80 00 00 00 80 00 00
  can0  255   [8]  00 00 00 00 00 00 00 00
  can0  265   [8]  69 00 00 00 00 00 14 82
  can0  280   [8]  00 00 A0 0F 00 00 00 00
  can0  321   [8]  00 22 FF 07 AD 87 F7 F3
  can0  208   [8]  00 00 00 00 00 00 00 00
  can0  218   [8]  00 FF 80 00 00 00 23 5D
  can0  258   [8]  02 8E 00 00 00 00 00 00
  can0  06E   [7]  25 A3 7F A9 76 00 01
  can0  00A   [8]  E4 01 00 00 00 00 00 00
  can0  202   [8]  00 7F 18 00 00 00 00 01
  can0  171   [8]  36 B0 00 00 00 00 00 00
  can0  1CA   [8]  00 00 00 00 00 00 00 00
  can0  205   [8]  00 80 00 00 00 80 00 00
  can0  255   [8]  00 00 00 00 00 00 00 00
  can0  265   [8]  68 00 00 00 00 00 14 83
  can0  280   [8]  00 00 A0 0F 00 00 00 00
  can0  321   [8]  00 21 FF 07 AE 87 F7 F3
  can0  218   [8]  00 FF 80 00 00 00 24 5C
  can0  06E   [7]  EA A4 7F A9 76 00 01
  can0  202   [8]  00 49 20 00 00 00 00 01
  can0  171   [8]  36 B0 00 00 00 00 00 00
  can0  1CA   [8]  00 00 00 00 00 00 00 00
  can0  205   [8]  00 80 00 00 00 80 00 00
  can0  255   [8]  00 00 00 00 00 00 00 00
  can0  265   [8]  67 00 00 00 00 00 14 84
  can0  280   [8]  00 00 A0 0F 00 00 00 00
  can0  321   [8]  00 20 FF 07 AF 87 F7 F3
  can0  208   [8]  00 00 00 00 00 00 00 00
  can0  218   [8]  00 FF 80 00 00 00 25 5B
  can0  258   [8]  02 8B 00 00 00 00 00 00
  can0  06E   [7]  AC A5 7F A9 76 00 01
  can0  202   [8]  00 43 28 00 00 00 00 01
  can0  171   [8]  36 B0 00 00 00 00 00 00
  can0  1CA   [8]  00 00 00 00 00 00 00 00
  can0  205   [8]  00 80 00 00 00 80 00 00
  can0  255   [8]  00 00 00 00 00 00 00 00
  can0  265   [8]  66 00 00 00 00 00 14 85
  can0  280   [8]  00 00 A0 0F 00 00 00 00
  can0  390   [8]  00 02 00 00 00 00 00 00
  can0  00A   [8]  03 02 00 00 00 00 00 00
  can0  321   [8]  00 1F FF 07 90 87 F7 F3
  can0  218   [8]  00 FF 80 00 00 00 26 5A
  can0  06E   [7]  66 A6 7F A9 76 00 01
  can0  202   [8]  00 5D 30 00 00 00 00 01
  can0  171   [8]  36 B0 00 00 00 00 00 00
  can0  1CA   [8]  00 00 00 00 00 00 00 00
  can0  205   [8]  00 80 00 00 00 80 00 00
  can0  255   [8]  00 00 00 00 00 00 00 00
  can0  265   [8]  65 00 00 00 00 00 14 86
  can0  280   [8]  00 00 A0 0F 00 00 00 00
  can0  321   [8]  00 1F 00 07 81 87 F7 F3
  can0  208   [8]  00 00 00 00 00 00 00 00
  can0  218   [8]  00 FF 80 00 00 00 27 59
  can0  258   [8]  02 82 00 00 00 00 00 00
  can0  06E   [7]  20 A7 7F A9 76 00 01
  can0  618   [8]  00 00 00 44 8C 00 03 CB
  can0  430   [8]  77 00 00 00 00 00 00 00
  can0  00A   [8]  5E 03 00 00 00 00 00 00
  can0  185   [8]  5A 64 3F FB 7F AA 31 1E
  can0  285   [8]  01 3C 00 00 00 00 00 30
  can0  375   [8]  A3 84 0C 64 41 40 A6 FF
  can0  385   [8]  00 00 00 00 00 00 00 2A
  can0  485   [8]  54 43 11 28 C1 1A 30 C5
  can0  617   [8]  00 00 00 00 00 00 03 03
  can0  202   [8]  00 57 38 00 00 00 00 01
  can0  171   [8]  36 B0 00 00 00 00 00 00
  can0  1CA   [8]  00 00 00 00 00 00 00 00
  can0  205   [8]  00 80 00 00 00 80 00 00
  can0  255   [8]  00 00 00 00 00 00 00 00
  can0  265   [8]  64 00 00 00 00 00 14 87
  can0  280   [8]  00 00 A0 0F 00 00 00 00
  can0  321   [8]  00 1E FF 07 A2 87 F7 F3
  can0  630   [7]  D2 01 00 00 00 E0 06
  can0  600   [5]  00 00 00 00 00
  can0  218   [8]  00 FF 80 00 00 00 28 58
  can0  06E   [7]  E5 A8 7F A9 76 00 01
  can0  382   [8]  51 08 10 05 10 06 00 00
  can0  202   [8]  00 31 40 00 00 00 00 01
  can0  171   [8]  36 B0 00 00 00 00 00 00
  can0  1CA   [8]  00 00 00 00 00 00 00 00
  can0  205   [8]  00 80 00 00 00 80 00 00
  can0  255   [8]  00 00 00 00 00 00 00 00
  can0  265   [8]  63 00 00 00 00 00 14 88
  can0  280   [8]  00 00 A0 0F 00 00 00 00
  can0  321   [8]  00 1C FD 07 B3 87 F7 F3
  can0  208   [8]  00 00 00 00 00 00 00 00
  can0  218   [8]  00 FF 80 00 00 00 29 57
  can0  258   [8]  02 74 00 00 00 00 00 00
  can0  06E   [7]  A3 A9 7F A9 76 00 01
  can0  202   [8]  00 3B 48 00 00 00 00 01
  can0  171   [8]  36 B0 00 00 00 00 00 00
  can0  1CA   [8]  00 00 00 00 00 00 00 00
  can0  205   [8]  00 80 00 00 00 80 00 00
  can0  255   [8]  00 00 00 00 00 00 00 00
  can0  265   [8]  62 00 00 00 00 00 14 89
  can0  275   [1]  01
  can0  280   [8]  00 00 A0 0F 00 00 00 00
  can0  400   [3]  74 05 30
  can0  411   [3]  86 05 00
  can0  500   [7]  54 A0 00 2C 01 00 5A
  can0  510   [5]  5D 73 6D 05 46
  can0  620   [6]  78 05 47 46 76 11
  can0  321   [8]  00 1C 00 07 E4 87 F7 F3
  can0  218   [8]  00 FF 80 00 00 00 2A 56
  can0  00A   [8]  D0 04 00 00 00 00 00 00
  can0  06E   [7]  69 AA 7F A9 76 00 01
  can0  202   [8]  00 25 50 00 00 00 00 01
  can0  171   [8]  36 B0 00 00 00 00 00 00
  can0  1CA   [8]  00 00 00 00 00 00 00 00
  can0  205   [8]  00 80 00 00 00 80 00 00
  can0  255   [8]  00 00 00 00 00 00 00 00
  can0  265   [8]  61 00 00 00 00 00 14 8A
  can0  280   [8]  00 00 A0 0F 00 00 00 00
  can0  321   [8]  00 1A FE 07 85 87 F7 F3
  can0  208   [8]  00 00 00 00 00 00 00 00
  can0  218   [8]  00 FF 80 00 00 00 2B 55
  can0  258   [8]  02 65 00 00 00 00 00 00
  can0  06E   [7]  2F AB 7F A9 76 00 01
  can0  00A   [8]  8D 05 00 00 00 00 00 00
  can0  202   [8]  00 2F 58 00 00 00 00 01
  can0  171   [8]  36 B1 00 00 00 00 00 00
  can0  1CA   [8]  00 00 00 00 00 00 00 00
  can0  205   [8]  00 80 00 00 00 80 00 00
  can0  255   [8]  00 00 00 04 00 00 00 00
  can0  265   [8]  60 00 00 00 00 00 14 8B
  can0  280   [8]  00 00 A0 0F 00 00 00 00
  can0  321   [8]  00 1A 00 07 A6 87 F7 F3
  can0  218   [8]  00 FF 80 00 00 00 2C 54
  can0  06E   [7]  E0 AC 7F A9 76 00 01
  can0  202   [8]  00 19 60 00 00 00 00 01
  can0  171   [8]  36 B0 00 00 00 00 00 00
  can0  1CA   [8]  00 00 00 00 00 00 00 00
  can0  205   [8]  00 80 00 00 00 80 00 00
  can0  255   [8]  00 00 00 00 00 00 00 00
  can0  265   [8]  5F 00 00 00 00 00 14 8C
  can0  280   [8]  00 00 A0 0F 00 00 00 00
  can0  321   [8]  00 19 FF 07 87 87 F7 F3
  can0  208   [8]  00 00 00 00 00 00 00 00
  can0  218   [8]  00 FF 80 00 00 00 2D 53
  can0  258   [8]  02 58 00 00 00 00 00 00
  can0  06E   [7]  A6 AD 7F A9 76 00 01
  can0  00A   [8]  6A 06 00 00 00 00 00 00
  can0  202   [8]  00 13 68 00 00 00 00 01
  can0  171   [8]  36 B0 00 00 00 00 00 00
  can0  1CA   [8]  00 00 00 00 00 00 00 00
  can0  205   [8]  00 80 00 00 00 80 00 00
  can0  255   [8]  00 00 00 00 00 00 00 00
  can0  265   [8]  5E 00 00 00 00 00 14 8D
  can0  280   [8]  00 00 A0 0F 00 00 00 00
  can0  321   [8]  00 19 00 07 78 87 F7 F3
  can0  218   [8]  00 FF 80 00 00 00 2E 52
  can0  06E   [7]  6C AE 7F A9 76 00 01
  can0  202   [8]  00 10 70 00 00 00 00 00
  can0  171   [8]  36 B0 00 00 00 00 00 00
  can0  1CA   [8]  00 00 00 00 00 00 00 00
  can0  205   [8]  00 80 00 00 00 80 00 00
  can0  255   [8]  00 00 00 00 00 00 00 00
  can0  265   [8]  5D 00 00 00 00 00 14 8E
  can0  280   [8]  00 00 A0 0F 00 00 00 00
  can0  321   [8]  00 18 FF 07 79 87 F7 F3
  can0  208   [8]  00 00 00 00 00 00 00 00
  can0  218   [8]  00 FF 80 00 00 00 2F 51
  can0  258   [8]  02 49 00 00 00 00 00 00
  can0  06E   [7]  2A AF 7F A9 76 00 01
  can0  202   [8]  00 1A 78 00 00 00 00 00
  can0  171   [8]  36 B0 00 00 00 00 00 00
  can0  1CA   [8]  00 00 00 00 00 00 00 00
  can0  205   [8]  00 80 00 00 00 80 00 00
  can0  255   [8]  00 00 00 00 00 00 00 00
  can0  265   [8]  5C 00 00 00 00 00 14 8F
  can0  280   [8]  00 00 A0 0F 00 00 00 00
  can0  390   [8]  00 02 00 00 00 00 00 00
  can0  00A   [8]  37 07 00 00 00 00 00 00
  can0  321   [8]  00 17 FF 07 BA 87 F7 F3
  can0  218   [8]  00 FF 80 00 00 00 20 60
  can0  06E   [7]  EF A0 7F A9 76 00 01
  can0  202   [8]  00 7C 00 00 00 00 00 00
  can0  171   [8]  36 B1 00 00 00 00 00 00
  can0  1CA   [8]  00 00 00 00 00 00 00 00
  can0  205   [8]  00 80 00 00 00 80 00 00
  can0  255   [8]  00 00 00 04 00 00 00 00
  can0  265   [8]  6B 00 00 00 00 00 14 80
  can0  280   [8]  00 00 A0 0F 00 00 00 00
  can0  321   [8]  00 17 00 07 AB 87 F7 F3
  can0  208   [8]  00 00 00 00 00 00 00 00
  can0  218   [8]  00 FF 80 00 00 00 21 5F
  can0  258   [8]  02 38 00 00 00 00 00 00
  can0  06E   [7]  A9 A1 7F A9 76 00 01
  can0  618   [8]  00 00 00 44 8C 00 04 CC
  can0  430   [8]  77 00 00 00 00 00 00 00
  can0  00A   [8]  6B 08 00 00 00 00 00 00
  can0  185   [8]  5A 64 3F FB 7F AA 41 6E
  can0  285   [8]  01 3C 00 00 00 00 00 40
  can0  375   [8]  FE 85 0C 64 41 40 A6 FF
  can0  385   [8]  00 00 00 00 00 00 00 2A
  can0  485   [8]  54 43 11 29 C1 1A 40 B4
  can0  617   [8]  00 00 00 00 00 00 04 04
  can0  202   [8]  00 76 08 00 00 00 00 00
  can0  171   [8]  36 B0 00 00 00 00 00 00
  can0  1CA   [8]  00 00 00 00 00 00 00 00
  can0  205   [8]  00 80 00 00 00 80 00 00
  can0  255   [8]  00 00 00 00 00 00 00 00
  can0  265   [8]  6A 00 00 00 00 00 14 81
  can0  280   [8]  00 00 A0 0F 00 00 00 00
  can0  321   [8]  00 17 00 07 DC 87 F7 F3
  can0  630   [7]  18 02 00 00 00 E0 06
  can0  600   [5]  00 00 00 00 00
  can0  601   [8]  75 03 00 00 CF 0F 00 69
  can0  621   [6]  EA 4B 86 62 00 1C
  can0  218   [8]  00 FF 80 00 00 00 22 5E
  can0  06E   [7]  63 A2 7F A9 76 00 01
  can0  382   [8]  51 09 10 06 10 06 10 06
  can0  202   [8]  00 68 10 00 00 00 00 00
  can0  171   [8]  36 B0 00 00 00 00 00 00
  can0  1CA   [8]  00 00 00 00 00 00 00 00
  can0  205   [8]  00 80 00 00 00 80 00 00
  can0  255   [8]  00 00 00 00 00 00 00 00
  can0  265   [8]  69 00 00 00 00 00 14 82
  can0  280   [8]  00 00 A0 0F 00 00 00 00
  can0  321   [8]  00 16 00 07 DD 87 F7 F3
  can0  208   [8]  00 00 00 00 00 00 00 00
  can0  218   [8]  00 FF 80 00 00 00 23 5D
  can0  258   [8]  02 1F 00 00 00 00 00 00
  can0  06E   [7]  25 A3 7F A9 76 00 01
  can0  202   [8]  00 62 18 00 00 00 00 00
  can0  171   [8]  36 B0 00 00 00 00 00 00
  can0  1CA   [8]  00 00 00 00 00 00 00 00
  can0  205   [8]  00 80 00 00 00 80 00 00
  can0  255   [8]  00 00 00 00 00 00 00 00
  can0  265   [8]  68 00 00 00 00 00 14 83
  can0  275   [1]  01
  can0  280   [8]  00 00 A0 0F 00 00 00 00
  can0  400   [3]  A0 06 30
  can0  411   [3]  52 06 00
  can0  500   [7]  54 A0 00 2C 01 00 5A
  can0  510   [5]  5D 73 6D 06 45
  can0  620   [6]  C6 06 47 46 76 11
  can0  321   [8]  00 15 FF 07 DE 87 F7 F3
  can0  218   [8]  00 FF 80 00 00 00 24 5C
  can0  00A   [8]  36 09 00 00 00 00 00 00
  can0  06E   [7]  EA A4 7F A9 76 00 01
  can0  202   [8]  00 54 20 00 00 00 00 00
  can0  171   [8]  36 B0 00 00 00 00 00 00
  can0  1CA   [8]  00 00 00 00 00 00 00 00
  can0  205   [8]  00 80 00 00 00 80 00 00
  can0  255   [8]  00 00 00 00 00 00 00 00
  can0  265   [8]  67 00 00 00 00 00 14 84
  can0  280   [8]  00 00 A0 0F 00 00 00 00
  can0  321   [8]  00 15 00 07 CF 87 F7 F3
  can0  208   [8]  00 00 00 00 00 00 00 00
  can0  218   [8]  00 FF 80 00 00 00 25 5B
  can0  258   [8]  01 FE 00 00 00 00 00 00
  can0  06E   [7]  AC A5 7F A9 76 00 01
  can0  00A   [8]  D1 0A 00 00 00 00 00 00
  can0  202   [8]  00 5E 28 00 00 00 00 00
  can0  171   [8]  36 B0 00 00 00 00 00 00
  can0  1CA   [8]  00 00 00 00 00 00 00 00
  can0  205   [8]  00 80 00 00 00 80 00 00
  can0  255   [8]  00 00 00 00 00 00 00 00
  can0  265   [8]  66 00 00 00 00 00 14 85
  can0  280   [8]  00 00 A0 0F 00 00 00 00
  can0  321   [8]  00 15 00 07 30 87 F7 F3
  can0  218   [8]  00 FF 80 00 00 00 26 5A
  can0  06E   [7]  66 A6 7F A9 76 00 01
  can0  202   [8]  00 40 30 00 00 00 00 00
  can0  171   [8]  36 B0 00 00 00 00 00 00
  can0  1CA   [8]  00 00 00 00 00 00 00 00
  can0  205   [8]  00 80 00 00 00 80 00 00
  can0  255   [8]  00 00 00 00 00 00 00 00
  can0  265   [8]  65 00 00 00 00 00 14 86
  can0  280   [8]  00 00 A0 0F 00 00 00 00
  can0  321   [8]  00 15 00 07 21 87 F7 F3
  can0  208   [8]  00 00 00 00 00 00 00 00
  can0  218   [8]  00 FF 80 00 00 00 27 59
  can0  258   [8]  01 D3 00 00 00 00 00 00
  can0  06E   [7]  20 A7 7F A9 76 00 01
  can0  00A   [8]  8C 0B 00 00 00 00 00 00
  can0  202   [8]  00 4A 38 00 00 00 00 00
  can0  171   [8]  36 B0 00 00 00 00 00 00
  can0  1CA   [8]  00 00 00 00 00 00 00 00
  can0  205   [8]  00 80 00 00 00 80 00 00
  can0  255   [8]  00 00 00 00 00 00 00 00
  can0  265   [8]  64 00 00 00 00 00 14 87
  can0  280   [8]  00 00 A0 0F 00 00 00 00
  can0  321   [8]  00 14 FF 07 02 87 F7 F3
  can0  218   [8]  00 FF 80 00 00 00 28 58
  can0  06E   [7]  E5 A8 7F A9 76 00 01
  can0  202   [8]  00 2C 40 00 00 00 00 00
  can0  171   [8]  36 AF 00 00 00 00 00 00
  can0  1CA   [8]  00 00 00 00 00 00 00 00
  can0  205   [8]  00 80 00 00 00 80 00 00
  can0  255   [8]  00 00 00 00 00 00 00 00
  can0  265   [8]  63 00 00 00 00 00 14 88
  can0  280   [8]  00 00 A0 0F 00 00 00 00
  can0  321   [8]  00 14 00 07 13 87 F7 F3
  can0  208   [8]  00 00 00 00 00 00 00 00
  can0  218   [8]  00 FF 80 00 00 00 29 57
  can0  258   [8]  01 A1 00 00 00 00 00 00
  can0  06E   [7]  A3 A9 7F A9 76 00 01
  can0  202   [8]  00 26 48 00 00 00 00 00
  can0  171   [8]  36 B0 00 00 00 00 00 00
  can0  1CA   [8]  00 00 00 00 00 00 00 00
  can0  205   [8]  00 80 00 00 00 80 00 00
  can0  255   [8]  00 00 00 00 00 00 00 00
  can0  265   [8]  62 00 00 00 00 00 14 89
  can0  280   [8]  00 00 A0 0F 00 00 00 00
  can0  390   [8]  00 03 00 00 00 00 00 00
  can0  00A   [8]  02 0C 00 00 00 00 00 00
  can0  321   [8]  00 14 00 07 64 87 F7 F3
  can0  218   [8]  00 FF 80 00 00 00 2A 56
  can0  06E   [7]  69 AA 7F A9 76 00 01
  can0  202   [8]  00 38 50 00 00 00 00 00
  can0  171   [8]  36 B0 00 00 00 00 00 00
  can0  1CA   [8]  00 00 00 00 00 00 00 00
  can0  205   [8]  00 80 00 00 00 80 00 00
  can0  255   [8]  00 00 00 00 00 00 00 00
  can0  265   [8]  61 00 00 00 00 00 14 8A
  can0  280   [8]  00 00 A0 0F 00 00 00 00
  can0  321   [8]  00 13 FF 07 05 87 F7 F3
  can0  208   [8]  00 00 00 00 00 00 00 00
  can0  218   [8]  00 FF 80 00 00 00 2B 55
  can0  258   [8]  01 6E 00 00 00 00 00 00
  can0  06E   [7]  2F AB 7F A9 76 00 01
  can0  618   [8]  00 00 00 44 8C 00 05 CD
  can0  617   [8]  00 00 00 00 00 00 05 05
  can0  00A   [8]  5F 0D 00 00 00 00 00 00
  can0  185   [8]  5A 64 3F FB 7F AA 51 7E
  can0  285   [8]  01 3C 00 00 00 00 00 50
  can0  375   [8]  19 86 0C 64 41 40 A6 FF
  can0  385   [8]  00 00 00 00 00 00 00 2A
  can0  430   [8]  77 00 00 00 00 00 00 00
  can0  485   [8]  54 43 11 28 C1 1A 50 A5
  can0  202   [8]  00 32 58 00 00 00 00 00
  can0  171   [8]  36 B0 00 00 00 00 00 00
  can0  1CA   [8]  00 00 00 00 00 00 00 00
  can0  205   [8]  00 80 00 00 00 80 00 00
  can0  255   [8]  00 00 00 00 00 00 00 00
  can0  265   [8]  60 00 00 00 00 00 14 8B
  can0  280   [8]  00 00 A0 0F 00 00 00 00
  can0  630   [7]  5E 03 00 00 00 E0 06
  can0  321   [8]  00 12 FF 07 26 87 F7 F3
  can0  600   [5]  00 00 00 00 00
  can0  218   [8]  00 FF 80 00 00 00 2C 54
  can0  06E   [7]  E0 AC 7F A9 76 00 01
  can0  382   [8]  51 0A 10 06 10 07 10 05
  can0  202   [8]  00 04 60 00 00 00 00 00
  can0  171   [8]  36 AF 00 00 00 00 00 00
  can0  1CA   [8]  00 00 00 00 00 00 00 00
  can0  205   [8]  00 80 00 00 00 80 00 00
  can0  255   [8]  00 00 00 00 00 00 00 00
  can0  265   [8]  5F 00 00 00 00 00 14 8C
  can0  280   [8]  00 00 A0 0F 00 00 00 00
  can0  321   [8]  00 12 00 07 37 87 F7 F3
  can0  208   [8]  00 00 00 00 00 00 00 00
  can0  218   [8]  00 FF 80 00 00 00 2D 53
  can0  258   [8]  01 42 00 00 00 00 00 00
  can0  06E   [7]  A6 AD 7F A9 76 00 01
  can0  202   [8]  00 0E 68 00 00 00 00 00
  can0  171   [8]  36 AF 00 00 00 00 00 00
  can0  1CA   [8]  00 00 00 00 00 00 00 00
  can0  205   [8]  00 80 00 00 00 80 00 00
  can0  255   [8]  00 00 00 00 00 00 00 00
  can0  265   [8]  5E 00 00 00 00 00 14 8D
  can0  275   [1]  01
  can0  280   [8]  00 00 A0 0F 00 00 00 00
  can0  400   [3]  EC 07 30
  can0  411   [3]  1E 07 00
  can0  4F0   [1]  00
  can0  500   [7]  54 A0 00 2C 01 00 5A
  can0  505   [2]  01 05
  can0  510   [5]  5D 73 6D 07 44
  can0  620   [6]  AC 07 47 46 76 11
  can0  321   [8]  00 11 FF 07 F8 87 F7 F3
  can0  218   [8]  00 FF 80 00 00 00 2E 52
  can0  00A   [8]  B8 0E 00 00 00 00 00 00
  can0  06E   [7]  6C AE 7F A9 76 00 01
  can0  202   [8]  00 10 70 00 00 00 00 00
  can0  171   [8]  36 B0 00 00 00 00 00 00
  can0  1CA   [8]  00 00 00 00 00 00 00 00
  can0  205   [8]  00 80 00 00 00 80 00 00
  can0  255   [8]  00 00 00 00 00 00 00 00
  can0  265   [8]  5D 00 00 00 00 00 14 8E
  can0  280   [8]  00 00 A0 0F 00 00 00 00
  can0  5F3   [1]  00
  can0  321   [8]  00 11 00 07 E9 87 F7 F3
  can0  208   [8]  00 00 00 00 00 00 00 00
  can0  218   [8]  00 FF 80 00 00 00 2F 51
  can0  258   [8]  01 28 00 00 00 00 00 00
  can0  06E   [7]  2A AF 7F A9 76 00 01
  can0  00A   [8]  E5 0F 00 00 00 00 00 00
  can0  202   [8]  00 1A 78 00 00 00 00 00
  can0  171   [8]  36 B1 00 00 00 00 00 00
  can0  1CA   [8]  00 00 00 00 00 00 00 00
  can0  205   [8]  00 80 00 00 00 80 00 00
  can0  255   [8]  00 00 00 04 00 00 00 00
  can0  265   [8]  5C 00 00 00 00 00 14 8F
  can0  280   [8]  00 00 A0 0F 00 00 00 00
  can0  321   [8]  00 10 FF 07 CA 87 F7 F3
  can0  218   [8]  00 FF 80 00 00 00 20 60
  can0  06E   [7]  EF A0 7F A9 76 00 01
  can0  202   [8]  00 61 00 00 00 00 00 01
  can0  171   [8]  36 B1 00 00 00 00 00 00
  can0  1CA   [8]  00 00 00 00 00 00 00 00
  can0  205   [8]  00 80 00 00 00 80 00 00
  can0  255   [8]  00 00 00 04 00 00 00 00
  can0  265   [8]  6B 00 00 00 00 00 14 80
  can0  280   [8]  00 00 A0 0F 00 00 00 00
  can0  321   [8]  00 10 00 07 DB 87 F7 F3
  can0  208   [8]  00 00 00 00 00 00 00 00
  can0  218   [8]  00 FF 80 00 00 00 21 5F
  can0  258   [8]  01 11 00 00 00 00 00 00
  can0  06E   [7]  A9 A1 7F A9 76 00 01
  can0  00A   [8]  B9 00 00 00 00 00 00 00
  can0  202   [8]  00 6B 08 00 00 00 00 01
  can0  171   [8]  36 B0 00 00 00 00 00 00
  can0  1CA   [8]  00 00 00 00 00 00 00 00
  can0  205   [8]  00 80 00 00 00 80 00 00
  can0  255   [8]  00 00 00 00 00 00 00 00
  can0  265   [8]  6A 00 00 00 00 00 14 81
  can0  280   [8]  00 00 A0 0F 00 00 00 00
  can0  321   [8]  00 10 00 07 AC 87 F7 F3
  can0  218   [8]  00 FF 80 00 00 00 22 5E
  can0  06E   [7]  63 A2 7F A9 76 00 01
  can0  202   [8]  00 68 10 00 00 00 00 00
  can0  171   [8]  36 B0 00 00 00 00 00 00
  can0  1CA   [8]  00 00 00 00 00 00 00 00
  can0  205   [8]  00 80 00 00 00 80 00 00
  can0  255   [8]  00 00 00 00 00 00 00 00
  can0  265   [8]  69 00 00 00 00 00 14 82
  can0  280   [8]  00 00 A0 0F 00 00 00 00
  can0  321   [8]  00 10 00 07 BD 87 F7 F3
  can0  208   [8]  00 00 00 00 00 00 00 00
  can0  218   [8]  00 FF 80 00 00 00 23 5D
  can0  258   [8]  00 EF 00 00 00 00 00 00
  can0  06E   [7]  25 A3 7F A9 76 00 01
  can0  202   [8]  00 62 18 00 00 00 00 00
  can0  171   [8]  36 B0 00 00 00 00 00 00
  can0  1CA   [8]  00 00 00 00 00 00 00 00
  can0  205   [8]  00 80 00 00 00 80 00 00
  can0  255   [8]  00 00 00 00 00 00 00 00
  can0  265   [8]  68 00 00 00 00 00 14 83
  can0  280   [8]  00 00 A0 0F 00 00 00 00
  can0  390   [8]  00 03 00 00 00 00 00 00
  can0  00A   [8]  E4 01 00 00 00 00 00 00
  can0  321   [8]  00 10 00 07 8E 87 F7 F3
  can0  218   [8]  00 FF 80 00 00 00 24 5C
  can0  06E   [7]  EA A4 7F A9 76 00 01
  can0  202   [8]  00 54 20 00 00 00 00 00
  can0  171   [8]  36 AF 00 00 00 00 00 00
  can0  1CA   [8]  00 00 00 00 00 00 00 00
  can0  205   [8]  00 80 00 00 00 80 00 00
  can0  255   [8]  00 00 00 00 00 00 00 00
  can0  265   [8]  67 00 00 00 00 00 14 84
  can0  280   [8]  00 00 A0 0F 00 00 00 00
  can0  321   [8]  00 0F FF 07 7F 87 F7 F3
  can0  208   [8]  00 00 00 00 00 00 00 00
  can0  218   [8]  00 FF 80 00 00 00 25 5B
  can0  258   [8]  00 D9 00 00 00 00 00 00
  can0  06E   [7]  AC A5 7F A9 76 00 01
  can0  618   [8]  00 00 00 44 8C 00 06 CE
  can0  430   [8]  77 00 00 00 00 00 00 00
  can0  00A   [8]  03 02 00 00 00 00 00 00
  can0  037   [6]  50 C3 00 00 00 30
  can0  185   [8]  5A 64 3F FA 7F AA 61 4F
  can0  285   [8]  01 3C 00 00 00 00 00 60
  can0  375   [8]  44 87 0C 64 41 40 A6 FF
  can0  385   [8]  00 00 00 00 00 00 00 2A
  can0  485   [8]  54 43 11 28 C1 1A 60 95
  can0  617   [8]  00 00 00 00 00 00 06 06
  can0  202   [8]  00 5E 28 00 00 00 00 00
  can0  171   [8]  36 B0 00 00 00 00 00 00
  can0  1CA   [8]  00 00 00 00 00 00 00 00
  can0  205   [8]  00 80 00 00 00 80 00 00
  can0  255   [8]  00 00 00 00 00 00 00 00
  can0  265   [8]  66 00 00 00 00 00 14 85
  can0  280   [8]  00 00 A0 0F 00 00 00 00
  can0  630   [7]  91 04 00 00 00 E0 06
  can0  600   [5]  00 00 00 00 00
  can0  321   [8]  00 0F 00 07 80 87 F7 F3
  can0  218   [8]  00 FF 80 00 00 00 26 5A
  can0  06E   [7]  66 A6 7F A9 76 00 01
  can0  382   [8]  51 0B 10 05 FE 70 00 D4
  can0  202   [8]  00 40 30 00 00 00 00 00
  can0  171   [8]  36 B0 00 00 00 00 00 00
  can0  1CA   [8]  00 00 00 00 00 00 00 00
  can0  205   [8]  00 80 00 00 00 80 00 00
  can0  255   [8]  00 00 00 00 00 00 00 00
  can0  265   [8]  65 00 00 00 00 00 14 86
  can0  280   [8]  00 00 A0 0F 00 00 00 00
  can0  321   [8]  00 0F 00 07 91 87 F7 F3
  can0  208   [8]  00 00 00 00 00 00 00 00
  can0  218   [8]  00 FF 80 00 00 00 27 59
  can0  258   [8]  00 C6 00 00 00 00 00 00
  can0  06E   [7]  20 A7 7F A9 76 00 01
  can0  202   [8]  00 4A 38 00 00 00 00 00
  can0  171   [8]  36 B0 00 00 00 00 00 00
  can0  1CA   [8]  00 00 00 00 00 00 00 00
  can0  205   [8]  00 80 00 00 00 80 00 00
  can0  255   [8]  00 00 00 00 00 00 00 00
  can0  265   [8]  64 00 00 00 00 00 14 87
  can0  275   [1]  01
  can0  280   [8]  00 00 A0 0F 00 00 00 00
  can0  400   [3]  4F 08 30
  can0  411   [3]  BD 08 00
  can0  500   [7]  54 A0 00 2C 01 00 5A
  can0  510   [5]  5D 73 6D 08 4B
  can0  620   [6]  D0 08 47 46 76 11
  can0  321   [8]  00 0F 00 07 A2 87 F7 F3
  can0  218   [8]  00 FF 80 00 00 00 28 58
  can0  00A   [8]  5E 03 00 00 00 00 00 00
  can0  06E   [7]  E5 A8 7F A9 76 00 01
  can0  202   [8]  00 2C 40 00 00 00 00 00
  can0  171   [8]  36 B0 00 00 00 00 00 00
  can0  1CA   [8]  00 00 00 00 00 00 00 00
  can0  205   [8]  00 80 00 00 00 80 00 00
  can0  255   [8]  00 00 00 00 00 00 00 00
  can0  265   [8]  63 00 00 00 00 00 14 88
  can0  280   [8]  00 00 A0 0F 00 00 00 00
  can0  321   [8]  00 0F 00 07 B3 87 F7 F3
  can0  208   [8]  00 00 00 00 00 00 00 00
  can0  218   [8]  00 FF 80 00 00 00 29 57
  can0  258   [8]  00 B5 00 00 00 00 00 00
  can0  06E   [7]  A3 A9 7F A9 76 00 01
  can0  00A   [8]  D0 04 00 00 00 00 00 00
  can0  202   [8]  00 26 48 00 00 00 00 00
  can0  171   [8]  36 B0 00 00 00 00 00 00
  can0  1CA   [8]  00 00 00 00 00 00 00 00
  can0  205   [8]  00 80 00 00 00 80 00 00
  can0  255   [8]  00 00 00 00 00 00 00 00
  can0  265   [8]  62 00 00 00 00 00 14 89
  can0  280   [8]  00 00 A0 0F 00 00 00 00
  can0  321   [8]  00 0F 00 07 C4 87 F7 F3
  can0  218   [8]  00 FF 80 00 00 00 2A 56
  can0  06E   [7]  69 AA 7F A9 76 00 01
  can0  202   [8]  00 38 50 00 00 00 00 00
  can0  171   [8]  36 B0 00 00 00 00 00 00
  can0  1CA   [8]  00 00 00 00 00 00 00 00
  can0  205   [8]  00 80 00 00 00 80 00 00
  can0  255   [8]  00 00 00 00 00 00 00 00
  can0  265   [8]  61 00 00 00 00 00 14 8A
  can0  280   [8]  00 00 A0 0F 00 00 00 00
  can0  321   [8]  00 0F 00 07 D5 87 F7 F3
  can0  208   [8]  00 00 00 00 00 00 00 00
  can0  218   [8]  00 FF 80 00 00 00 2B 55
  can0  258   [8]  00 A0 00 00 00 00 00 00
  can0  06E   [7]  2F AB 7F A9 76 00 01
  can0  00A   [8]  8D 05 00 00 00 00 00 00
  can0  202   [8]  00 32 58 00 00 00 00 00
  can0  171   [8]  36 AF 00 00 00 00 00 00
  can0  1CA   [8]  00 00 00 00 00 00 00 00
  can0  205   [8]  00 80 00 00 00 80 00 00
  can0  255   [8]  00 00 00 00 00 00 00 00
  can0  265   [8]  60 00 00 00 00 00 14 8B
  can0  280   [8]  00 00 A0 0F 00 00 00 00
  can0  321   [8]  00 0E FF 07 F6 87 F7 F3
  can0  218   [8]  00 FF 80 00 00 00 2C 54
  can0  06E   [7]  E0 AC 7F A9 76 00 01
  can0  202   [8]  00 04 60 00 00 00 00 00
  can0  171   [8]  36 B0 00 00 00 00 00 00
  can0  1CA   [8]  00 00 00 00 00 00 00 00
  can0  205   [8]  00 80 00 00 00 80 00 00
  can0  255   [8]  00 00 00 00 00 00 00 00
  can0  265   [8]  5F 00 00 00 00 00 14 8C
  can0  280   [8]  00 00 A0 0F 00 00 00 00
  can0  321   [8]  00 0E 00 07 E7 87 F7 F3
  can0  208   [8]  00 00 00 00 00 00 00 00
  can0  218   [8]  00 FF 80 00 00 00 2D 53
  can0  258   [8]  00 89 00 00 00 00 00 00
  can0  06E   [7]  A6 AD 7F A9 76 00 01
  can0  202   [8]  00 0E 68 00 00 00 00 00
  can0  171   [8]  36 B0 00 00 00 00 00 00
  can0  1CA   [8]  00 00 00 00 00 00 00 00
  can0  205   [8]  00 80 00 00 00 80 00 00
  can0  255   [8]  00 00 00 00 00 00 00 00
  can0  265   [8]  5E 00 00 00 00 00 14 8D
  can0  280   [8]  00 00 A0 0F 00 00 00 00
  can0  390   [8]  00 03 00 00 00 00 00 00
  can0  00A   [8]  6A 06 00 00 00 00 00 00
  can0  321   [8]  00 0D FF 07 28 87 F7 F3
  can0  218   [8]  00 FF 80 00 00 00 2E 52
  can0  06E   [7]  6C AE 7F A9 76 00 01
  can0  202   [8]  00 0D 70 00 00 00 00 01
  can0  171   [8]  36 B0 00 00 00 00 00 00
  can0  1CA   [8]  00 00 00 00 00 00 00 00
  can0  205   [8]  00 80 00 00 00 80 00 00
  can0  255   [8]  00 00 00 00 00 00 00 00
  can0  265   [8]  5D 00 00 00 00 00 14 8E
  can0  280   [8]  00 00 A0 0F 00 00 00 00
  can0  321   [8]  00 0D 00 07 39 87 F7 F3
  can0  208   [8]  00 00 00 00 00 00 00 00
  can0  218   [8]  00 FF 80 00 00 00 2F 51
  can0  258   [8]  00 72 00 00 00 00 00 00
  can0  06E   [7]  2A AF 7F A9 76 00 01
  can0  618   [8]  00 00 00 44 8C 00 07 CF
  can0  430   [8]  77 00 00 00 00 00 00 00
  can0  00A   [8]  37 07 00 00 00 00 00 00
  can0  185   [8]  5A 64 3F FA 7F AA 71 5F
  can0  285   [8]  01 3C 00 00 00 00 00 70
  can0  375   [8]  18 88 0C 64 41 40 A6 FF
  can0  385   [8]  00 00 00 00 00 00 00 2A
  can0  485   [8]  54 43 11 29 C1 1A 70 84
  can0  617   [8]  00 00 00 00 00 00 07 07
  can0  202   [8]  00 07 78 00 00 00 00 01
  can0  171   [8]  36 B0 00 00 00 00 00 00
  can0  1CA   [8]  00 00 00 00 00 00 00 00
  can0  205   [8]  00 80 00 00 00 80 00 00
  can0  255   [8]  00 00 00 00 00 00 00 00
  can0  265   [8]  5C 00 00 00 00 00 14 8F
  can0  280   [8]  00 00 A0 0F 00 00 00 00
  can0  630   [7]  D7 05 00 00 00 E0 06
  can0  600   [5]  00 00 00 00 00
  can0  321   [8]  00 0D 00 07 0A 87 F7 F3
  can0  218   [8]  00 FF 80 00 00 00 20 60
  can0  06E   [7]  EF A0 7F A9 76 00 01
  can0  382   [8]  51 0C 00 D9 00 DA FE 70
  can0  202   [8]  00 61 00 00 00 00 00 01
  can0  171   [8]  36 B0 00 00 00 00 00 00
  can0  1CA   [8]  00 00 00 00 00 00 00 00
  can0  205   [8]  00 80 00 00 00 80 00 00
  can0  255   [8]  00 00 00 00 00 00 00 00
  can0  265   [8]  6B 00 00 00 00 00 14 80
  can0  280   [8]  00 00 A0 0F 00 00 00 00
  can0  321   [8]  00 0D 00 07 1B 87 F7 F3
  can0  208   [8]  00 00 00 00 00 00 00 00
  can0  218   [8]  00 FF 80 00 00 00 21 5F
  can0  258   [8]  00 56 00 00 00 00 00 00
  can0  06E   [7]  A9 A1 7F A9 76 00 01
  can0  202   [8]  00 6B 08 00 00 00 00 01
  can0  171   [8]  36 B0 00 00 00 00 00 00
  can0  1CA   [8]  00 00 00 00 00 00 00 00
  can0  205   [8]  00 80 00 00 00 80 00 00
  can0  255   [8]  00 00 00 00 00 00 00 00
  can0  265   [8]  6A 00 00 00 00 00 14 81
  can0  275   [1]  01
  can0  280   [8]  00 00 A0 0F 00 00 00 00
  can0  400   [3]  03 09 30
  can0  411   [3]  F1 09 00
  can0  500   [7]  54 A0 00 2C 01 00 5A
  can0  510   [5]  5D 73 6D 09 4A
  can0  620   [6]  BA 09 47 46 76 11
  can0  321   [8]  00 0D 00 07 6C 87 F7 F3
  can0  218   [8]  00 FF 80 00 00 00 22 5E
  can0  00A   [8]  6B 08 00 00 00 00 00 00
  can0  06E   [7]  63 A2 7F A9 76 00 01
  can0  202   [8]  00 75 10 00 00 00 00 01
  can0  171   [8]  36 B0 00 00 00 00 00 00
  can0  1CA   [8]  00 00 00 00 00 00 00 00
  can0  205   [8]  00 80 00 00 00 80 00 00
  can0  255   [8]  00 00 00 00 00 00 00 00
  can0  265   [8]  69 00 00 00 00 00 14 82
  can0  280   [8]  00 00 A0 0F 00 00 00 00
  can0  321   [8]  00 0D 00 07 7D 87 F7 F3
  can0  208   [8]  00 00 00 00 00 00 00 00
  can0  218   [8]  00 FF 80 00 00 00 23 5D
  can0  258   [8]  00 3D 00 00 00 00 00 00
  can0  06E   [7]  25 A3 7F A9 76 00 01
  can0  00A   [8]  36 09 00 00 00 00 00 00
  can0  202   [8]  00 7F 18 00 00 00 00 01
  can0  171   [8]  36 AF 00 00 00 00 00 00
  can0  1CA   [8]  00 00 00 00 00 00 00 00
  can0  205   [8]  00 80 00 00 00 80 00 00
  can0  255   [8]  00 00 00 00 00 00 00 00
  can0  265   [8]  68 00 00 00 00 00 14 83
  can0  280   [8]  00 00 A0 0F 00 00 00 00
  can0  321   [8]  00 0D 00 07 4E 87 F7 F3
  can0  218   [8]  00 FF 80 00 00 00 24 5C
  can0  06E   [7]  EA A4 7F A9 76 00 01
  can0  202   [8]  00 49 20 00 00 00 00 01
  can0  171   [8]  36 B0 00 00 00 00 00 00
  can0  1CA   [8]  00 00 00 00 00 00 00 00
  can0  205   [8]  00 81 55 00 00 80 00 00
  can0  255   [8]  00 00 00 00 00 00 00 00
  can0  265   [8]  67 00 00 00 00 00 14 84
  can0  280   [8]  00 00 A0 0F 00 00 00 00
  can0  321   [8]  00 0D 00 07 5F 87 F7 F3
  can0  208   [8]  00 00 00 00 00 00 00 00
  can0  218   [8]  00 FF 80 00 00 00 25 5B
  can0  258   [8]  00 27 00 00 00 00 00 00
  can0  06E   [7]  AC A5 7F A9 76 00 01
  can0  00A   [8]  D1 0A 00 00 00 00 00 00
  can0  202   [8]  00 43 28 00 00 00 00 01
  can0  171   [8]  36 B0 00 00 00 00 00 00
  can0  1CA   [8]  00 00 00 00 00 00 00 00
  can0  205   [8]  00 82 AB 00 00 80 00 00
  can0  255   [8]  00 00 00 00 00 00 00 00
  can0  265   [8]  66 00 00 00 00 00 14 85
  can0  280   [8]  00 00 A0 0F 00 00 00 00
  can0  321   [8]  00 0D 00 07 A0 87 F7 F3
  can0  218   [8]  00 FF 80 00 00 00 26 5A
  can0  06E   [7]  66 A6 7F A9 76 00 01
  can0  202   [8]  00 5D 30 00 00 00 00 01
  can0  171   [8]  36 AF 00 00 00 00 00 00
  can0  1CA   [8]  00 00 00 00 00 00 00 00
  can0  205   [8]  00 84 01 00 00 80 00 00
  can0  255   [8]  00 00 00 00 00 00 00 00
  can0  265   [8]  65 00 00 00 00 00 14 86
  can0  280   [8]  00 00 A0 0F 00 00 00 00
  can0  321   [8]  00 0D 00 07 B1 87 F7 F3
  can0  208   [8]  00 00 00 00 00 00 00 00
  can0  218   [8]  00 FF 80 00 00 00 07 79
  can0  258   [8]  00 00 00 00 00 00 00 00
  can0  06E   [7]  20 A7 7F A9 76 00 01
  can0  202   [8]  00 57 38 00 00 00 00 01
  can0  171   [8]  36 AB 00 00 00 00 00 00
  can0  1CA   [8]  00 00 00 00 00 00 00 00
  can0  205   [8]  00 86 AC 00 00 80 00 00
  can0  255   [8]  00 00 00 00 00 00 00 00
  can0  265   [8]  64 00 00 00 00 00 14 87
  can0  280   [8]  00 00 A0 0F 00 00 00 00
  can0  390   [8]  00 03 00 00 00 00 00 00
  can0  00A   [8]  8C 0B 00 00 00 00 00 00
  can0  321   [8]  00 0E 01 07 A2 87 F7 F3
  can0  218   [8]  00 FF 80 00 00 00 08 78
  can0  06E   [7]  E5 A8 7F A9 76 00 01
  can0  202   [8]  00 31 40 00 00 00 00 01
  can0  171   [8]  36 A4 00 00 00 00 00 00
  can0  1CA   [8]  00 00 00 00 00 00 00 00
  can0  205   [8]  00 88 02 00 00 80 00 00
  can0  255   [8]  00 00 00 00 00 00 00 00
  can0  265   [8]  63 00 00 00 00 00 14 88
  can0  280   [8]  00 00 A0 0F 00 00 00 00
  can0  321   [8]  00 0F 01 07 A3 87 F7 F3
  can0  208   [8]  00 00 00 00 00 00 00 00
  can0  218   [8]  00 FF 80 00 00 00 09 77
  can0  258   [8]  00 00 00 00 00 00 00 00
  can0  06E   [7]  A3 A9 7F A9 76 00 01
  can0  618   [8]  00 00 00 44 8C 00 08 C0
  can0  617   [8]  00 00 00 00 00 00 08 08
  can0  00A   [8]  02 0C 00 00 00 00 00 00
  can0  185   [8]  5A 64 3F F3 7F AA 81 A6
  can0  285   [8]  01 3C 00 00 00 00 00 80
  can0  375   [8]  45 89 0C 64 41 40 A6 FF
  can0  385   [8]  00 00 00 00 00 00 00 2A
  can0  430   [8]  77 00 00 00 00 00 00 00
  can0  485   [8]  54 43 11 28 C1 1A 80 75
  can0  202   [8]  00 3B 48 00 00 00 00 01
  can0  171   [8]  36 9C 00 00 00 00 00 00
  can0  1CA   [8]  00 00 00 00 00 00 00 00
  can0  205   [8]  00 89 57 00 00 81 55 00
  can0  255   [8]  00 00 00 00 00 00 00 00
  can0  265   [8]  62 00 00 00 00 00 14 89
  can0  280   [8]  00 00 A0 0F 00 00 00 00
  can0  630   [7]  1D 06 00 00 00 E0 06
  can0  600   [5]  00 00 00 00 00
  can0  321   [8]  00 0F 00 07 C4 87 F7 F3
  can0  218   [8]  00 FF 80 00 00 00 0A 76
  can0  06E   [7]  8D 7A 7F A9 76 00 01
  can0  382   [8]  51 0D 00 00 00 00 00 00
  can0  202   [8]  00 02 50 00 00 00 00 02
  can0  171   [8]  36 8D 00 00 00 00 00 00
  can0  1CA   [8]  00 00 00 00 00 00 00 00
  can0  205   [8]  00 8A AD 00 00 81 55 00
  can0  255   [8]  00 00 00 00 00 00 00 00
  can0  265   [8]  61 00 00 00 00 00 14 8A
  can0  280   [8]  00 00 A0 0F 00 00 00 00
  can0  321   [8]  00 0F 00 07 D5 87 F7 F3
  can0  208   [8]  00 00 00 00 00 00 00 00
  can0  218   [8]  00 FF 80 00 00 00 0B 75
  can0  258   [8]  00 00 00 00 00 00 00 00
  can0  06E   [7]  CB 7B 7F A9 76 00 01
  can0  202   [8]  00 08 58 00 00 00 00 02
  can0  171   [8]  36 75 00 00 00 00 00 00
  can0  1CA   [8]  00 00 00 00 00 00 00 00
  can0  205   [8]  00 8C 03 00 00 82 AB 00
  can0  255   [8]  00 00 00 00 00 00 00 00
  can0  265   [8]  60 00 00 00 00 00 14 8B
  can0  275   [1]  01
  can0  280   [8]  00 00 A0 0F 00 00 00 00
  can0  400   [3]  D7 0A 30
  can0  411   [3]  25 0A 00
  can0  500   [7]  54 A0 00 2C 01 00 5A
  can0  510   [5]  5D 73 6D 0A 49
  can0  620   [6]  04 0A 47 46 76 11
  can0  321   [8]  00 0F 00 07 E6 87 F7 F3
  can0  218   [8]  00 FF 80 00 00 00 0C 74
  can0  00A   [8]  5F 0D 00 00 00 00 00 00
  can0  06E   [7]  04 7C 7F A9 76 00 01
  can0  202   [8]  00 4A 60 00 00 00 00 06
  can0  171   [8]  36 5B 00 00 00 00 00 00
  can0  1CA   [8]  00 00 00 00 00 00 00 00
  can0  205   [8]  00 8C 03 00 00 82 AB 00
  can0  255   [8]  00 00 00 00 00 00 00 00
  can0  265   [8]  5F 00 00 00 00 00 14 8C
  can0  280   [8]  00 00 A0 0F 00 00 00 00
  can0  321   [8]  00 0F 00 07 F7 87 F7 F3
  can0  208   [8]  00 00 00 00 00 00 00 00
  can0  218   [8]  00 FF 80 00 00 00 0D 73
  can0  258   [8]  00 00 00 00 00 00 00 00
  can0  06E   [7]  42 7D 7F A9 76 00 01
  can0  00A   [8]  B8 0E 00 00 00 00 00 00
  can0  202   [8]  00 40 68 00 00 00 00 06
  can0  171   [8]  36 5E 00 00 00 00 00 00
  can0  1CA   [8]  00 00 00 00 00 00 00 00
  can0  205   [8]  00 8D 58 00 00 84 01 00
  can0  255   [8]  00 00 00 00 00 00 00 00
  can0  265   [8]  5E 00 00 00 00 00 14 8D
  can0  280   [8]  00 00 A0 0F 00 00 00 00
  can0  321   [8]  00 0F 00 07 08 87 F7 F3
  can0  218   [8]  00 FF 80 00 00 00 0E 72
  can0  06E   [7]  88 7E 7F A9 76 00 01
  can0  202   [8]  00 E7 70 00 00 00 00 12
  can0  171   [8]  36 73 00 00 00 00 00 00
  can0  1CA   [8]  00 00 00 00 00 00 00 00
  can0  205   [8]  00 8E AE 00 00 85 56 00
  can0  255   [8]  00 00 00 00 00 00 00 00
  can0  265   [8]  5D 00 00 00 00 00 14 8E
  can0  280   [8]  00 00 A0 0F 00 00 00 00
  can0  321   [8]  00 0F 00 07 19 87 F7 F3
  can0  208   [8]  00 00 00 00 00 00 00 00
  can0  218   [8]  00 FF 80 00 00 00 0F 71
  can0  258   [8]  00 00 00 00 00 00 00 00
  can0  06E   [7]  CE 7F 7F A9 76 00 01
  can0  00A   [8]  E5 0F 00 00 00 00 00 00
  can0  202   [8]  00 ED 78 00 00 00 00 12
  can0  171   [8]  36 96 00 00 00 00 00 00
  can0  1CA   [8]  00 00 00 00 00 00 00 00
  can0  205   [8]  00 8E AE 00 00 89 57 00
  can0  255   [8]  00 00 00 00 00 00 00 00
  can0  265   [8]  5C 00 00 00 00 00 14 8F
  can0  280   [8]  00 00 A0 0F 00 00 00 00
  can0  321   [8]  00 0F 00 07 2A 87 F7 F3
  can0  218   [8]  00 FF 80 00 00 00 00 80
  can0  06E   [7]  0B 70 7F A9 76 00 01
  can0  202   [8]  00 E6 00 00 00 00 00 21
  can0  171   [8]  36 AC 00 00 00 00 00 00
  can0  1CA   [8]  00 00 00 00 00 00 00 00
  can0  205   [8]  00 90 04 00 00 8C 03 00
  can0  255   [8]  00 00 00 00 00 00 00 00
  can0  265   [8]  6B 00 00 00 00 00 14 80
  can0  280   [8]  00 00 A0 0F 00 00 00 00
  can0  321   [8]  00 0F 00 07 3B 87 F7 F3
  can0  208   [8]  00 00 00 00 00 00 00 00
  can0  218   [8]  00 FF 80 00 00 00 01 7F
  can0  258   [8]  00 00 00 00 00 00 00 00
  can0  06E   [7]  4D 71 7F A9 76 00 01
  can0  202   [8]  00 EC 08 00 00 00 00 21
  can0  171   [8]  36 AF 00 00 00 00 00 00
  can0  1CA   [8]  00 00 00 00 00 00 00 00
  can0  205   [8]  00 90 04 00 00 8E AE 00
  can0  255   [8]  00 00 00 00 00 00 00 00
  can0  265   [8]  6A 00 00 00 00 00 14 81
  can0  280   [8]  00 00 A0 0F 00 00 00 00
  can0  390   [8]  00 02 00 00 00 00 00 00
  can0  00A   [8]  B9 00 00 00 00 00 00 00
  can0  321   [8]  00 0F 00 07 4C 87 F7 F3
  can0  218   [8]  00 FF 80 00 00 00 02 7E
  can0  06E   [7]  87 72 7F A9 76 00 01
  can0  202   [8]  00 F2 10 00 00 00 00 21
  can0  171   [8]  36 AA 00 00 00 00 00 00
  can0  1CA   [8]  00 00 00 00 00 00 00 00
  can0  205   [8]  00 90 04 00 00 8E AE 00
  can0  255   [8]  00 00 00 00 00 00 00 00
  can0  265   [8]  69 00 00 00 00 00 14 82
  can0  280   [8]  00 00 A0 0F 00 00 00 00
  can0  321   [8]  00 0F 00 07 5D 87 F7 F3
  can0  208   [8]  00 00 00 00 00 00 00 00
  can0  218   [8]  00 FF 80 00 00 00 03 7D
  can0  258   [8]  00 00 00 00 00 00 00 00
  can0  06E   [7]  C1 73 7F A9 76 00 01
  can0  618   [8]  00 00 00 44 8C 00 09 C1
  can0  430   [8]  77 00 00 00 00 00 00 00
  can0  00A   [8]  E4 01 00 00 00 00 00 00
  can0  185   [8]  5A 64 3F F5 7F AA 91 B0
  can0  285   [8]  01 3C 00 00 00 00 00 90
  can0  375   [8]  A2 8A 0C 64 41 40 A6 FF
  can0  385   [8]  00 00 00 00 00 00 00 2A
  can0  485   [8]  54 43 11 28 C1 1A 90 65
  can0  617   [8]  00 00 00 00 00 00 09 09
  can0  202   [8]  00 F8 18 00 00 00 00 21
  can0  171   [8]  36 A6 00 00 00 00 00 00
  can0  1CA   [8]  00 00 00 00 00 00 00 00
  can0  205   [8]  00 91 59 00 00 8E AE 00
  can0  255   [8]  00 00 00 00 00 00 00 00
  can0  265   [8]  68 00 00 00 00 00 14 83
  can0  280   [8]  00 00 A0 0F 00 00 00 00
  can0  630   [7]  5B 07 00 00 00 E0 06
  can0  600   [5]  00 00 00 00 00
  can0  420   [8]  00 6E 00 00 02 00 00 00
  can0  600   [5]  00 00 00 00 00
  can0  321   [8]  00 0F 00 07 6E 87 F7 F3
  can0  218   [8]  00 FF 80 00 00 00 04 7C
  can0  601   [8]  75 03 00 00 CF 0F 00 69
  can0  621   [6]  EB 4B 86 62 00 1C
  can0  06E   [7]  C2 84 7F A9 76 00 01
  can0  382   [8]  51 0E 00 00 00 00 00 00
  can0  202   [8]  00 05 20 00 00 00 00 1C
  can0  171   [8]  36 A3 00 00 00 00 00 00
  can0  1CA   [8]  00 00 00 00 00 00 00 00
  can0  205   [8]  00 91 59 00 00 90 04 00
  can0  255   [8]  00 00 00 00 00 00 00 00
  can0  265   [8]  67 00 00 00 00 00 14 84
  can0  280   [8]  00 00 A0 0F 00 00 00 00
  can0  321   [8]  00 0F 00 07 7F 87 F7 F3
  can0  208   [8]  00 00 00 00 00 00 00 00
  can0  218   [8]  00 FF 80 00 00 00 05 7B
  can0  258   [8]  00 00 00 00 00 00 00 00
  can0  06E   [7]  84 85 7F A9 76 00 01
  can0  202   [8]  00 0F 28 00 00 00 00 1C
  can0  171   [8]  36 A0 00 00 00 00 00 00
  can0  1CA   [8]  00 00 00 00 00 00 00 00
  can0  205   [8]  00 91 59 00 00 90 04 00
  can0  255   [8]  00 00 00 00 00 00 00 00
  can0  265   [8]  66 00 00 00 00 00 14 85
  can0  275   [1]  01
  can0  280   [8]  00 00 A0 0F 00 00 00 00
  can0  400   [3]  9B 0B 30
  can0  411   [3]  69 0B 00
  can0  500   [7]  54 A0 00 2C 01 00 5A
  can0  510   [5]  5D 73 6D 0B 48
  can0  620   [6]  67 0B 47 48 76 11
  can0  321   [8]  00 0F 00 07 80 87 F7 F3
  can0  218   [8]  00 FF 80 00 00 00 06 7A
  can0  00A   [8]  03 02 00 00 00 00 00 00
  can0  06E   [7]  4E 86 7F A9 76 00 01
  can0  202   [8]  00 78 30 00 00 00 00 19
  can0  171   [8]  36 9F 00 00 00 00 00 00
  can0  1CA   [8]  00 00 00 00 00 00 00 00
  can0  205   [8]  00 91 59 00 00 90 04 00
  can0  255   [8]  00 00 00 00 00 00 00 00
  can0  265   [8]  65 00 00 00 00 00 14 86
  can0  280   [8]  00 00 A0 0F 00 00 00 00
  can0  321   [8]  00 0F 00 07 91 87 F7 F3
  can0  208   [8]  00 00 00 00 00 00 00 00
  can0  218   [8]  00 FF 80 00 00 00 07 79
  can0  258   [8]  00 00 00 00 00 00 00 00
  can0  06E   [7]  08 87 7F A9 76 00 01
  can0  00A   [8]  5E 03 00 00 00 00 00 00
  can0  202   [8]  00 72 38 00 00 00 00 19
  can0  171   [8]  36 A1 00 00 00 00 00 00
  can0  1CA   [8]  00 00 00 00 00 00 00 00
  can0  205   [8]  00 92 AF 00 00 90 04 00
  can0  255   [8]  00 00 00 00 00 00 00 00
  can0  265   [8]  64 00 00 00 00 00 14 87
  can0  280   [8]  00 00 A0 0F 00 00 00 00
  can0  321   [8]  00 0F 00 07 A2 87 F7 F3
  can0  218   [8]  00 FF 80 00 00 00 08 78
  can0  06E   [7]  CD 88 7F A9 76 00 01
  can0  202   [8]  00 09 40 00 00 00 00 18
  can0  171   [8]  36 A4 00 00 00 00 00 00
  can0  1CA   [8]  00 00 00 00 00 00 00 00
  can0  205   [8]  00 92 AF 00 00 91 59 00
  can0  255   [8]  00 00 00 00 00 00 00 00
  can0  265   [8]  63 00 00 00 00 00 14 88
  can0  280   [8]  00 00 A0 0F 00 00 00 00
  can0  321   [8]  00 0F 00 07 B3 87 F7 F3
  can0  208   [8]  00 00 00 00 00 00 00 00
  can0  218   [8]  00 FF 80 00 00 00 09 77
  can0  258   [8]  00 00 00 00 00 00 00 00
  can0  06E   [7]  8B 89 7F A9 76 00 01
  can0  00A   [8]  D0 04 00 00 00 00 00 00
  can0  202   [8]  00 03 48 00 00 00 00 18
  can0  171   [8]  36 A7 00 00 00 00 00 00
  can0  1CA   [8]  00 00 00 00 00 00 00 00
  can0  205   [8]  00 92 AF 00 00 91 59 00
  can0  255   [8]  00 00 00 00 00 00 00 00
  can0  265   [8]  62 00 00 00 00 00 14 89
  can0  280   [8]  00 00 A0 0F 00 00 00 00
  can0  321   [8]  00 0F 00 07 C4 87 F7 F3
  can0  218   [8]  00 FF 80 00 00 00 0A 76
  can0  06E   [7]  41 8A 7F A9 76 00 01
  can0  202   [8]  00 A6 50 00 00 00 00 17
  can0  171   [8]  36 AB 00 00 00 00 00 00
  can0  1CA   [8]  00 00 00 00 00 00 00 00
  can0  205   [8]  00 92 AF 00 00 92 AF 00
  can0  255   [8]  00 00 00 00 00 00 00 00
  can0  265   [8]  61 00 00 00 00 00 14 8A
  can0  280   [8]  00 00 A0 0F 00 00 00 00
  can0  321   [8]  00 0F 00 07 D5 87 F7 F3
  can0  208   [8]  00 00 00 00 00 00 00 00
  can0  218   [8]  00 FF 80 00 00 00 0B 75
  can0  258   [8]  00 00 00 00 01 00 00 00
  can0  06E   [7]  07 8B 7F A9 76 00 01
  can0  202   [8]  00 AC 58 00 00 00 00 17
  can0  171   [8]  36 A8 00 00 00 00 00 00
  can0  1CA   [8]  00 00 00 00 00 00 00 00
  can0  205   [8]  00 92 AF 00 00 92 AF 00
  can0  255   [8]  00 00 00 00 00 00 00 00
  can0  265   [8]  60 00 00 00 00 00 14 8B
  can0  280   [8]  00 00 A0 0F 00 00 00 00
  can0  390   [8]  00 02 00 00 00 00 00 00
  can0  00A   [8]  8D 05 00 00 00 00 00 00
  can0  321   [8]  00 0F 00 07 E6 87 F7 F3
  can0  218   [8]  00 FF 80 00 00 00 0C 74
  can0  06E   [7]  C8 8C 7F A9 76 00 01
  can0  202   [8]  00 A0 60 00 00 00 00 15
  can0  171   [8]  36 AA 00 00 00 00 00 00
  can0  1CA   [8]  00 00 00 00 00 00 00 00
  can0  205   [8]  00 92 AF 00 00 92 AF 00
  can0  255   [8]  00 00 00 00 00 00 00 00
  can0  265   [8]  5F 00 00 00 00 00 14 8C
  can0  280   [8]  00 00 A0 0F 00 00 00 00
  can0  321   [8]  00 0F 00 07 F7 87 F7 F3
  can0  208   [8]  00 00 00 00 00 00 00 00
  can0  218   [8]  00 FF 80 00 00 00 0D 73
  can0  258   [8]  00 00 00 00 01 00 00 00
  can0  06E   [7]  8E 8D 7F A9 76 00 01
  can0  618   [8]  00 00 00 44 8C 00 0A C2
  can0  430   [8]  77 00 00 00 00 00 00 00
  can0  00A   [8]  6A 06 00 00 00 00 00 00
  can0  185   [8]  5A 64 3F F7 7F AA A1 82
  can0  285   [8]  01 3C 00 00 00 00 00 A0
  can0  375   [8]  FF 8B 0C 64 41 40 A6 FF
  can0  385   [8]  00 00 00 00 00 00 00 2A
  can0  485   [8]  54 43 11 28 C1 1A A0 55
  can0  617   [8]  00 00 00 00 00 00 0A 0A
  can0  202   [8]  00 AA 68 00 00 00 00 15
  can0  171   [8]  36 AB 00 00 00 00 00 00
  can0  1CA   [8]  00 00 00 00 00 00 00 00
  can0  205   [8]  00 92 AF 00 00 92 AF 00
  can0  255   [8]  00 00 00 00 00 00 00 00
  can0  265   [8]  5E 00 00 00 00 00 14 8D
  can0  280   [8]  00 00 A0 0F 00 00 00 00
  can0  630   [7]  9E 08 00 00 00 E0 06
  can0  600   [5]  00 00 00 00 00
  can0  321   [8]  00 0F 00 07 08 87 F7 F3
  can0  218   [8]  00 FF 80 00 00 00 0E 72
  can0  06E   [7]  44 8E 7F A9 76 00 01
  can0  382   [8]  51 0F 00 00 00 00 00 00
  can0  202   [8]  00 FA 70 00 00 00 00 13
  can0  171   [8]  36 A8 00 00 00 00 00 00
  can0  1CA   [8]  00 00 00 00 00 00 00 00
  can0  205   [8]  00 92 AF 00 00 92 AF 00
  can0  255   [8]  00 00 00 00 00 00 00 00
  can0  265   [8]  5D 00 00 00 00 00 14 8E
  can0  280   [8]  00 00 A0 0F 00 00 00 00
  can0  321   [8]  00 0F 00 07 19 87 F7 F3
  can0  208   [8]  00 00 00 00 00 00 00 00
  can0  218   [8]  00 FF 80 00 00 00 0F 71
  can0  258   [8]  00 00 00 00 01 00 00 00
  can0  06E   [7]  02 8F 7F A9 76 00 01
  can0  202   [8]  00 F0 78 00 00 00 00 13
  can0  171   [8]  36 A8 00 00 00 00 00 00
  can0  1CA   [8]  00 00 00 00 00 00 00 00
  can0  205   [8]  00 92 AF 00 00 92 AF 00
  can0  255   [8]  00 00 00 00 00 00 00 00
  can0  265   [8]  5C 00 00 00 00 00 14 8F
  can0  275   [1]  01
  can0  280   [8]  00 00 A0 0F 00 00 00 00
  can0  400   [3]  62 0C 30
  can0  411   [3]  90 0C 00
  can0  500   [7]  54 A0 00 2C 01 00 5A
  can0  510   [5]  5D 73 6D 0C 4F
  can0  620   [6]  6A 0C 47 4C 76 11
  can0  321   [8]  00 0F 00 07 2A 87 F7 F3
  can0  218   [8]  00 FF 80 00 00 00 00 80
  can0  00A   [8]  37 07 00 00 00 00 00 00
  can0  06E   [7]  C7 80 7F A9 76 00 01
  can0  202   [8]  00 AC 00 00 00 00 00 11
  can0  171   [8]  36 A9 00 00 00 00 00 00
  can0  1CA   [8]  00 00 00 00 00 00 00 00
  can0  205   [8]  00 92 AF 00 00 92 AF 00
  can0  255   [8]  00 00 00 00 00 00 00 00
  can0  265   [8]  6B 00 00 00 00 00 14 80
  can0  280   [8]  00 00 A0 0F 00 00 00 00
  can0  321   [8]  00 0F 00 07 3B 87 F7 F3
  can0  208   [8]  00 00 00 00 00 00 00 00
  can0  218   [8]  00 FF 80 00 00 00 01 7F
  can0  258   [8]  00 00 00 00 01 00 00 00
  can0  06E   [7]  81 81 7F A9 76 00 01
  can0  00A   [8]  6B 08 00 00 00 00 00 00
  can0  202   [8]  00 A6 08 00 00 00 00 11
  can0  171   [8]  36 AB 00 00 00 00 00 00
  can0  1CA   [8]  00 00 00 00 00 00 00 00
  can0  205   [8]  00 92 AF 00 00 92 AF 00
  can0  255   [8]  00 00 00 00 00 00 00 00
  can0  265   [8]  6A 00 00 00 00 00 14 81
  can0  280   [8]  00 00 A0 0F 00 00 00 00
  can0  321   [8]  00 0F 00 07 4C 87 F7 F3
  can0  218   [8]  00 FF 80 00 00 00 02 7E
  can0  06E   [7]  4B 82 7F A9 76 00 01
  can0  202   [8]  00 A5 10 00 00 00 00 10
  can0  171   [8]  36 A9 00 00 00 00 00 00
  can0  1CA   [8]  00 00 00 00 00 00 00 00
  can0  205   [8]  00 92 AF 00 00 92 AF 00
  can0  255   [8]  00 00 00 00 00 00 00 00
  can0  265   [8]  69 00 00 00 00 00 14 82
  can0  280   [8]  00 00 A0 0F 00 00 00 00
  can0  321   [8]  00 0F 00 07 5D 87 F7 F3
  can0  208   [8]  00 00 00 00 00 00 00 00
  can0  218   [8]  00 FF 80 00 00 00 03 7D
  can0  258   [8]  00 00 00 00 01 00 00 00
  can0  06E   [7]  0D 83 7F A9 76 00 01
  can0  00A   [8]  36 09 00 00 00 00 00 00
  can0  202   [8]  00 AF 18 00 00 00 00 10
  can0  171   [8]  36 A8 00 00 00 00 00 00
  can0  1CA   [8]  00 00 00 00 00 00 00 00
  can0  205   [8]  00 92 AF 00 00 92 AF 00
  can0  255   [8]  00 00 00 00 00 00 00 00
  can0  265   [8]  68 00 00 00 00 00 14 83
  can0  280   [8]  00 00 A0 0F 00 00 00 00
  can0  321   [8]  00 0F 00 07 6E 87 F7 F3
  can0  218   [8]  00 FF 80 00 00 00 04 7C
  can0  06E   [7]  C2 84 7F A9 76 00 01
  can0  202   [8]  00 F2 20 00 00 00 00 0E
  can0  171   [8]  36 A6 00 00 00 00 00 00
  can0  1CA   [8]  00 00 00 00 00 00 00 00
  can0  205   [8]  00 92 AF 00 00 92 AF 00
  can0  255   [8]  00 00 00 00 00 00 00 00
  can0  265   [8]  67 00 00 00 00 00 14 84
  can0  280   [8]  00 00 A0 0F 00 00 00 00
  can0  321   [8]  00 0F 00 07 7F 87 F7 F3
  can0  208   [8]  00 00 00 00 00 00 00 00
  can0  218   [8]  00 FF 80 00 00 00 05 7B
  can0  258   [8]  00 00 00 00 01 00 00 00
  can0  06E   [7]  84 85 7F A9 76 00 01
  can0  202   [8]  00 F8 28 00 00 00 00 0E
  can0  171   [8]  36 A3 00 00 00 00 00 00
  can0  1CA   [8]  00 00 00 00 00 00 00 00
  can0  205   [8]  00 92 AF 00 00 92 AF 00
  can0  255   [8]  00 00 00 00 00 00 00 00
  can0  265   [8]  66 00 00 00 00 00 14 85
  can0  280   [8]  00 00 A0 0F 00 00 00 00
  can0  390   [8]  00 02 00 00 00 00 00 00
  can0  00A   [8]  D1 0A 00 00 00 00 00 00
  can0  218   [8]  00 FF 80 00 00 00 06 7A
  can0  321   [8]  00 0F 00 07 80 87 F7 F3
  can0  06E   [7]  4E 86 7F A9 76 00 01
  can0  202   [8]  00 C1 30 00 00 00 00 0D
  can0  171   [8]  36 9E 00 00 00 00 00 00
  can0  1CA   [8]  00 00 00 00 00 00 00 00
  can0  205   [8]  00 92 AF 00 00 92 AF 00
  can0  255   [8]  00 00 00 00 00 00 00 00
  can0  265   [8]  65 00 00 00 00 00 14 86
  can0  280   [8]  00 00 A0 0F 00 00 00 00
  can0  208   [8]  00 00 00 00 00 00 00 00
  can0  218   [8]  00 FF 80 00 00 00 07 79
  can0  258   [8]  00 00 00 00 01 00 00 00
  can0  321   [8]  00 0F 00 07 91 87 F7 F3
  can0  06E   [7]  08 87 7F A9 76 00 01
  can0  618   [8]  00 00 00 44 8C 00 0B C3
  can0  617   [8]  00 00 00 00 00 00 0B 0B
  can0  00A   [8]  8C 0B 00 00 00 00 00 00
  can0  185   [8]  5A 64 3F EF 7F AA B1 8A
  can0  285   [8]  01 3C 00 00 00 00 00 B0
  can0  375   [8]  71 8C 0C 64 41 40 A6 FF
  can0  385   [8]  00 00 00 00 00 00 00 2A
  can0  430   [8]  77 00 00 00 00 00 00 00
  can0  485   [8]  54 43 11 29 C1 1A B0 44
  can0  202   [8]  00 CB 38 00 00 00 00 0D
  can0  171   [8]  36 9E 00 00 00 00 00 00
  can0  1CA   [8]  00 00 00 00 00 00 00 00
  can0  205   [8]  00 92 AF 00 00 92 AF 00
  can0  255   [8]  00 00 00 00 00 00 00 00
  can0  265   [8]  64 00 00 00 00 00 14 87
  can0  280   [8]  00 00 A0 0F 00 00 00 00
  can0  630   [7]  D8 09 00 00 00 E0 06
  can0  600   [5]  00 00 00 00 00
  can0  218   [8]  00 FF 80 00 00 00 08 78
  can0  321   [8]  00 0F 00 07 A2 87 F7 F3
  can0  06E   [7]  29 58 7F A9 76 00 01
  can0  382   [8]  51 10 00 00 00 00 10 04
  can0  202   [8]  00 8A 40 00 00 00 00 0E
  can0  171   [8]  36 A1 00 00 00 00 00 00
  can0  1CA   [8]  00 00 00 00 00 00 00 00
  can0  205   [8]  00 92 AF 00 00 92 AF 00
  can0  255   [8]  00 00 00 00 00 00 00 00
  can0  265   [8]  63 00 00 00 00 00 14 88
  can0  280   [8]  00 00 A0 0F 00 00 00 00
  can0  208   [8]  00 00 00 00 00 00 00 00
  can0  218   [8]  00 FF 80 00 00 00 09 77
  can0  258   [8]  00 00 00 00 01 00 00 00
  can0  321   [8]  00 0F 00 07 B3 87 F7 F3
  can0  06E   [7]  6F 59 7F A9 76 00 01
  can0  202   [8]  00 80 48 00 00 00 00 0E
  can0  171   [8]  36 A2 00 00 00 00 00 00
  can0  1CA   [8]  00 00 00 00 00 00 00 00
  can0  205   [8]  00 92 AF 00 00 92 AF 00
  can0  255   [8]  00 00 00 00 00 00 00 00
  can0  265   [8]  62 00 00 00 00 00 14 89
  can0  275   [1]  01
  can0  280   [8]  00 00 A0 0F 00 00 00 00
  can0  400   [3]  2E 0D 30
  can0  411   [3]  DC 0D 00
  can0  500   [7]  54 A0 00 2C 01 00 5A
  can0  510   [5]  5D 73 6D 0D 4E
  can0  620   [6]  00 0D 47 4C 76 11
  can0  218   [8]  00 FF 80 00 00 00 0A 76
  can0  321   [8]  00 0F 00 07 C4 87 F7 F3
  can0  00A   [8]  02 0C 00 00 00 00 00 00
  can0  06E   [7]  A5 5A 7F A9 76 00 01
  can0  202   [8]  00 83 50 00 00 00 00 0F
  can0  171   [8]  36 A3 00 00 00 00 00 00
  can0  1CA   [8]  00 00 00 00 00 00 00 00
  can0  205   [8]  00 92 AF 00 00 92 AF 00
  can0  255   [8]  00 00 00 00 00 00 00 00
  can0  265   [8]  61 00 00 00 00 00 14 8A
  can0  280   [8]  00 00 A0 0F 00 00 00 00
  can0  208   [8]  00 00 00 00 00 00 00 00
  can0  218   [8]  00 FF 80 00 00 00 0B 75
  can0  258   [8]  00 00 00 00 01 00 00 00
  can0  321   [8]  00 0F 00 07 D5 87 F7 F3
  can0  06E   [7]  E3 5B 7F A9 76 00 01
  can0  00A   [8]  5F 0D 00 00 00 00 00 00
  can0  202   [8]  00 89 58 00 00 00 00 0F
  can0  171   [8]  36 A7 00 00 00 00 00 00
  can0  1CA   [8]  00 00 00 00 00 00 00 00
  can0  205   [8]  00 92 AF 00 00 92 AF 00
  can0  255   [8]  00 00 00 00 00 00 00 00
  can0  265   [8]  60 00 00 00 00 00 14 8B
  can0  280   [8]  00 00 A0 0F 00 00 00 00
  can0  218   [8]  00 FF 80 00 00 00 0C 74
  can0  321   [8]  00 0F 00 07 E6 87 F7 F3
  can0  06E   [7]  2C 5C 7F A9 76 00 01
  can0  202   [8]  00 C9 60 00 00 00 00 10
  can0  171   [8]  36 A9 00 00 00 00 00 00
  can0  1CA   [8]  00 00 00 00 00 00 00 00
  can0  205   [8]  00 92 AF 00 00 92 AF 00
  can0  255   [8]  00 00 00 00 00 00 00 00
  can0  265   [8]  5F 00 00 00 00 00 14 8C
  can0  280   [8]  00 00 A0 0F 00 00 00 00
  can0  208   [8]  00 00 00 00 00 00 00 00
  can0  218   [8]  00 FF 80 00 00 00 0D 73
  can0  258   [8]  00 00 00 00 01 00 00 01
  can0  321   [8]  00 0F 00 07 F7 87 F7 F3
  can0  06E   [7]  6A 5D 7F A9 76 00 01
  can0  00A   [8]  B8 0E 00 00 00 00 00 00
  can0  202   [8]  00 C3 68 00 00 00 00 10
  can0  171   [8]  36 A8 00 00 00 00 00 00
  can0  1CA   [8]  00 00 00 00 00 00 00 00
  can0  205   [8]  00 92 AF 00 00 92 AF 00
  can0  255   [8]  00 00 00 00 00 00 00 00
  can0  265   [8]  5E 00 00 00 00 00 14 8D
  can0  280   [8]  00 00 A0 0F 00 00 00 00
  can0  218   [8]  00 FF 80 00 00 00 0E 72
  can0  321   [8]  00 0F 00 07 08 87 F7 F3
  can0  06E   [7]  A0 5E 7F A9 76 00 01
  can0  202   [8]  00 AB 70 00 00 00 00 0F
  can0  171   [8]  36 A6 00 00 00 00 00 00
  can0  1CA   [8]  00 00 00 00 00 00 00 00
  can0  205   [8]  00 92 AF 00 00 92 AF 00
  can0  255   [8]  00 00 00 00 00 00 00 00
  can0  265   [8]  5D 00 00 00 00 00 14 8E
  can0  280   [8]  00 00 A0 0F 00 00 00 00
  can0  208   [8]  00 00 00 00 00 00 00 00
  can0  218   [8]  00 FF 80 00 00 00 0F 71
  can0  258   [8]  00 00 00 00 01 00 00 01
  can0  321   [8]  00 0F 00 07 19 87 F7 F3
  can0  06E   [7]  E6 5F 7F A9 76 00 01
  can0  390   [8]  00 02 00 00 00 00 00 00
  can0  171   [8]  36 A3 00 00 00 00 00 00
  can0  1CA   [8]  00 00 00 00 00 00 00 00
  can0  202   [8]  00 A1 78 00 00 00 00 0F
  can0  205   [8]  00 92 AF 00 00 92 AF 00
  can0  255   [8]  00 00 00 00 00 00 00 00
  can0  265   [8]  5C 00 00 00 00 00 14 8F
  can0  280   [8]  00 00 A0 0F 00 00 00 00
  can0  00A   [8]  E5 0F 00 00 00 00 00 00
  can0  218   [8]  00 FF 80 00 00 00 00 80
  can0  321   [8]  00 0F 00 07 2A 87 F7 F3
  can0  06E   [7]  23 50 7F A9 76 00 01
  can0  202   [8]  00 DA 00 00 00 00 00 0E
  can0  171   [8]  36 A1 00 00 00 00 00 00
  can0  1CA   [8]  00 00 00 00 00 00 00 00
  can0  205   [8]  00 92 AF 00 00 92 AF 00
  can0  255   [8]  00 00 00 00 00 00 00 00
  can0  265   [8]  6B 00 00 00 00 00 14 80
  can0  280   [8]  00 00 A0 0F 00 00 00 00
  can0  208   [8]  00 00 00 00 00 00 00 00
  can0  218   [8]  00 FF 80 00 00 00 01 7F
  can0  258   [8]  00 00 00 00 01 00 00 01
  can0  321   [8]  00 0F 00 07 3B 87 F7 F3
  can0  06E   [7]  65 51 7F A9 76 00 01
  can0  618   [8]  00 00 00 44 8C 00 0C C4
  can0  430   [8]  77 00 00 00 00 00 00 00
  can0  00A   [8]  B9 00 00 00 00 00 00 00
  can0  185   [8]  5A 64 3F ED 7F AA C1 F8
  can0  285   [8]  01 3C 00 00 00 00 00 C0
  can0  375   [8]  2C 8D 0C 64 41 40 A6 FF
  can0  385   [8]  00 00 00 00 00 00 00 2A
  can0  485   [8]  54 43 11 29 C1 1A C0 34
  can0  617   [8]  00 00 00 00 00 00 0C 0C
  can0  202   [8]  00 D0 08 00 00 00 00 0E
  can0  171   [8]  36 9F 00 00 00 00 00 00
  can0  1CA   [8]  00 00 00 00 00 00 00 00
  can0  205   [8]  00 92 AF 00 00 92 AF 00
  can0  255   [8]  00 00 00 00 00 00 00 00
  can0  265   [8]  6A 00 00 00 00 00 14 81
  can0  280   [8]  00 00 A0 0F 00 00 00 00
  can0  630   [7]  12 0A 00 00 00 E0 06
  can0  600   [5]  00 00 00 00 00
  can0  218   [8]  00 FF 80 00 00 00 02 7E
  can0  321   [8]  00 0F 00 07 4C 87 F7 F3
  can0  06E   [7]  BB 42 7F A9 76 00 01
  can0  382   [8]  51 11 10 04 00 00 00 00
  can0  202   [8]  00 D3 10 00 00 00 00 0F
  can0  171   [8]  36 9E 00 00 00 00 00 00
  can0  1CA   [8]  00 00 00 00 00 00 00 00
  can0  205   [8]  00 92 AF 00 00 92 AF 00
  can0  255   [8]  00 00 00 00 00 00 00 00
  can0  265   [8]  69 00 00 00 00 00 14 82
  can0  280   [8]  00 00 A0 0F 00 00 00 00
  can0  208   [8]  00 00 00 00 00 00 00 00
  can0  218   [8]  00 FF 80 00 00 00 03 7D
  can0  258   [8]  00 00 00 00 01 00 01 01
  can0  321   [8]  00 0F 00 07 5D 87 F7 F3
  can0  06E   [7]  FD 43 7F A9 76 00 01
  can0  202   [8]  00 D9 18 00 00 00 00 0F
  can0  171   [8]  36 9E 00 00 00 00 00 00
  can0  1CA   [8]  00 00 00 00 00 00 00 00
  can0  205   [8]  00 92 AF 00 00 92 AF 00
  can0  255   [8]  00 00 00 00 00 00 00 00
  can0  265   [8]  68 00 00 00 00 00 14 83
  can0  275   [1]  01
  can0  280   [8]  00 00 A0 0F 00 00 00 00
  can0  400   [3]  FA 0E 30
  can0  411   [3]  08 0E 00
  can0  500   [7]  54 A0 00 2C 01 00 5A
  can0  510   [5]  5D 73 6D 0E 4D
  can0  620   [6]  31 0E 47 4D 76 11
  can0  218   [8]  00 FF 80 00 00 00 04 7C
  can0  321   [8]  00 0F 00 07 6E 87 F7 F3
  can0  00A   [8]  E4 01 00 00 00 00 00 00
  can0  06E   [7]  32 44 7F A9 76 00 01
  can0  202   [8]  00 99 20 00 00 00 00 10
  can0  171   [8]  36 9E 00 00 00 00 00 00
  can0  1CA   [8]  00 00 00 00 00 00 00 00
  can0  205   [8]  00 92 AF 00 00 92 AF 00
  can0  255   [8]  00 00 00 00 00 00 00 00
  can0  265   [8]  67 00 00 00 00 00 14 84
  can0  280   [8]  00 00 A0 0F 00 00 00 00
  can0  208   [8]  00 00 00 00 00 00 00 00
  can0  218   [8]  00 FF 80 00 00 00 05 7B
  can0  258   [8]  00 00 00 00 01 00 01 01
  can0  321   [8]  00 0F 00 07 7F 87 F7 F3
  can0  06E   [7]  74 45 7F A9 76 00 01
  can0  00A   [8]  03 02 00 00 00 00 00 00
  can0  202   [8]  00 93 28 00 00 00 00 10
  can0  171   [8]  36 9E 00 00 00 00 00 00
  can0  1CA   [8]  00 00 00 00 00 00 00 00
  can0  205   [8]  00 92 AF 00 00 92 AF 00
  can0  255   [8]  00 00 00 00 00 00 00 00
  can0  265   [8]  66 00 00 00 00 00 14 85
  can0  280   [8]  00 00 A0 0F 00 00 00 00
  can0  218   [8]  00 FF 80 00 00 00 06 7A
  can0  321   [8]  00 0F 00 07 80 87 F7 F3
  can0  06E   [7]  BE 46 7F A9 76 00 01
  can0  202   [8]  00 90 30 00 00 00 00 11
  can0  171   [8]  36 9D 00 00 00 00 00 00
  can0  1CA   [8]  00 00 00 00 00 00 00 00
  can0  205   [8]  00 92 AF 00 00 92 AF 00
  can0  255   [8]  00 00 00 00 00 00 00 00
  can0  265   [8]  65 00 00 00 00 00 14 86
  can0  280   [8]  00 00 A0 0F 00 00 00 00
  can0  208   [8]  00 00 00 00 00 00 00 00
  can0  218   [8]  00 FF 80 00 00 00 07 79
  can0  258   [8]  00 00 00 00 01 00 01 01
  can0  321   [8]  00 0F 00 07 91 87 F7 F3
  can0  06E   [7]  F8 47 7F A9 76 00 01
  can0  00A   [8]  5E 03 00 00 00 00 00 00
  can0  202   [8]  00 9A 38 00 00 00 00 11
  can0  171   [8]  36 9E 00 00 00 00 00 00
  can0  1CA   [8]  00 00 00 00 00 00 00 00
  can0  205   [8]  00 92 AF 00 00 92 AF 00
  can0  255   [8]  00 00 00 00 00 00 00 00
